#Parameters = {wx=165.1; wth=12; wy=82.55; wz=558.8; wx2=250; wy2=220; er1=5; er11=0.1}
#"Frequency / GHz"	"S3,3 [Real/Imaginary Part] [Re]"	"S3,3 [Real/Imaginary Part] [Im]"
#-------------------------------------------------------------------------------------
1.0000000000000	-0.013343016000000	-0.0054544592000000
1.0007000000000	-0.013122491208927	-0.0055320255928670
1.0014000000000	-0.012988085287425	-0.0056860643201574
1.0021000000000	-0.012856697787811	-0.0059852429696515
1.0028000000000	-0.012723241042683	-0.0064099727606954
1.0035000000000	-0.012671813000000	-0.0068609621000000
1.0042000000000	-0.012550497369485	-0.0069779854311454
1.0049000000000	-0.012356121107053	-0.0071723740550447
1.0056000000000	-0.012169535471166	-0.0073583324863678
1.0063000000000	-0.012027913993100	-0.0075715426294694
1.0070000000000	-0.011914126000000	-0.0079642384999999
1.0077000000000	-0.011523217276701	-0.0081837758842992
1.0084000000000	-0.011378231988148	-0.0083800563769551
1.0091000000000	-0.011230579568920	-0.0086101742255507
1.0098000000000	-0.011022397046681	-0.0088252521765645
1.0105000000000	-0.010894208000000	-0.0088906139000000
1.0112000000000	-0.010708847241880	-0.0092734933035511
1.0119000000000	-0.010514033417025	-0.0094800406427584
1.0126000000000	-0.010262835124678	-0.0095815384111829
1.0133000000000	-0.0099843555561216	-0.0096907417364451
1.0140000000000	-0.0097810375000000	-0.0099686710000000
1.0147000000000	-0.0095951832485316	-0.010187294663797
1.0154000000000	-0.0094451509799954	-0.010364826929570
1.0161000000000	-0.0091975937076832	-0.010532288340508
1.0168000000000	-0.0088791111071849	-0.010705590786000
1.0175000000000	-0.0086756628000000	-0.010903710000000
1.0182000000000	-0.0085211961553820	-0.011063446313799
1.0189000000000	-0.0084013629331170	-0.011199348225872
1.0196000000000	-0.0082041898220678	-0.011321695125775
1.0203000000000	-0.0079176447135604	-0.011421158399648
1.0210000000000	-0.0076306066000001	-0.011477202000000
1.0217000000000	-0.0071985089696067	-0.011645823391106
1.0224000000000	-0.0069742624289078	-0.011797634163304
1.0231000000000	-0.0068561505167908	-0.011894242393499
1.0238000000000	-0.0067472203434712	-0.011943157956632
1.0245000000000	-0.0065519451000000	-0.012003065000000
1.0252000000000	-0.0061332201387205	-0.012268315916398
1.0259000000000	-0.0058771480809336	-0.012351868700554
1.0266000000000	-0.0057864374950290	-0.012357863434479
1.0273000000000	-0.0057351469633414	-0.012386105586464
1.0280000000000	-0.0054739648000000	-0.012531862000000
1.0287000000000	-0.0051910480125577	-0.012493346370808
1.0294000000000	-0.0049709235209978	-0.012591568421996
1.0301000000000	-0.0047486555013163	-0.012713695962624
1.0308000000000	-0.0045181732442736	-0.012812214813264
1.0315000000000	-0.0043263272000000	-0.012909740000000
1.0322000000000	-0.0039965899481108	-0.012736080945348
1.0329000000000	-0.0036814884020638	-0.012895441208976
1.0336000000000	-0.0034349625859188	-0.013019868376462
1.0343000000000	-0.0032796769595172	-0.013021957182794
1.0350000000000	-0.0031764419000000	-0.013089382000000
1.0357000000000	-0.0029137651263018	-0.013117557678242
1.0364000000000	-0.0025697001879019	-0.013212736807791
1.0371000000000	-0.0023170912500684	-0.013263778384633
1.0378000000000	-0.0021597724839995	-0.013255453699533
1.0385000000000	-0.0019237724000000	-0.013251828000000
1.0392000000000	-0.0017168983463709	-0.013297321949773
1.0399000000000	-0.0014546726789117	-0.013283270123398
1.0406000000000	-0.0012366976180451	-0.013275862518843
1.0413000000000	-0.0010322483924324	-0.013280426439712
1.0420000000000	-0.00068729516000000	-0.013230243000000
1.0427000000000	-0.00056109055525524	-0.013295152782328
1.0434000000000	-0.00034644563154560	-0.013269658682480
1.0441000000000	-0.00014832657970122	-0.013220868870805
1.0448000000000	4.6977566021231e-05	-0.013206773354236
1.0455000000000	0.00037072538000000	-0.013267048000000
1.0462000000000	0.00046243311780240	-0.013223184762027
1.0469000000000	0.00067027280772844	-0.013200573007736
1.0476000000000	0.00096254197669906	-0.013165150102968
1.0483000000000	0.0012586574672149	-0.013121290664087
1.0490000000000	0.0014330126999999	-0.013118338000000
1.0497000000000	0.0016251623168734	-0.013111226821182
1.0504000000000	0.0018474011015624	-0.013081681855657
1.0511000000000	0.0020638254888961	-0.012989596054483
1.0518000000000	0.0022635139879103	-0.012879700785371
1.0525000000000	0.0024674744000000	-0.012879310000000
1.0532000000000	0.0025832257984493	-0.012757933774549
1.0539000000000	0.0027398928836018	-0.012719764751099
1.0546000000000	0.0029417720704577	-0.012658702618399
1.0553000000000	0.0031901644885144	-0.012571320698736
1.0560000000000	0.0034918534000000	-0.012556634000000
1.0567000000000	0.0035512043900910	-0.012402793279771
1.0574000000000	0.0037095880171984	-0.012389946025726
1.0581000000000	0.0038909817827538	-0.012315810650562
1.0588000000000	0.0041118380084929	-0.012169453139297
1.0595000000000	0.0044953305999999	-0.012122490000000
1.0602000000000	0.0046828955519066	-0.011940104459435
1.0609000000000	0.0047985780800776	-0.011892252871115
1.0616000000000	0.0049497821219363	-0.011776181252538
1.0623000000000	0.0051315357916550	-0.011581015619936
1.0630000000000	0.0052437829000000	-0.011493895000000
1.0637000000000	0.0054453063167056	-0.011351210657095
1.0644000000000	0.0056414078141592	-0.011354099392881
1.0651000000000	0.0058098724553985	-0.011204287301837
1.0658000000000	0.0059503486903490	-0.010903752373733
1.0665000000000	0.0061121644000000	-0.010750612000000
1.0672000000000	0.0063066423767269	-0.010695837785573
1.0679000000000	0.0064867796019129	-0.010703509499146
1.0686000000000	0.0066607363194850	-0.010569701882252
1.0693000000000	0.0068052013285197	-0.010302516302970
1.0700000000000	0.0068853041000000	-0.010122990000000
1.0707000000000	0.0070782498520754	-0.010040355582948
1.0714000000000	0.0072848868536584	-0.0099136432783472
1.0721000000000	0.0074610931652570	-0.0097586493742720
1.0728000000000	0.0075592758645448	-0.0095855747671813
1.0735000000000	0.0075288424000000	-0.0093972702000001
1.0742000000000	0.0078154792004152	-0.0093037186188297
1.0749000000000	0.0079735582258998	-0.0091633115639788
1.0756000000000	0.0080941381126529	-0.0090043477145166
1.0763000000000	0.0082158076511289	-0.0088321850172330
1.0770000000000	0.0083226962000000	-0.0086344453000000
1.0777000000000	0.0084342258620211	-0.0084732992642599
1.0784000000000	0.0085076271955310	-0.0084068224575548
1.0791000000000	0.0086475849429160	-0.0083429407789266
1.0798000000000	0.0088151702278058	-0.0082207127637689
1.0805000000000	0.0088282367000000	-0.0080207726000000
1.0812000000000	0.0090630611231706	-0.0078340055189265
1.0819000000000	0.0091721083791374	-0.0076007608018827
1.0826000000000	0.0092580265553126	-0.0074451309707662
1.0833000000000	0.0093824679416028	-0.0073478949178051
1.0840000000000	0.0095550986000000	-0.0071513969000000
1.0847000000000	0.0095240977141478	-0.0069959003079013
1.0854000000000	0.0095691443333500	-0.0068457287918926
1.0861000000000	0.0097229304554669	-0.0066881914349211
1.0868000000000	0.0099355602760425	-0.0065248467382835
1.0875000000000	0.010075129000000	-0.0063817184000000
1.0882000000000	0.010064474554991	-0.0061410422376714
1.0889000000000	0.010177501696700	-0.0059836519217151
1.0896000000000	0.010261975756887	-0.0058283471135646
1.0903000000000	0.010293084892248	-0.0056533476122696
1.0910000000000	0.010377605000000	-0.0054863309000000
1.0917000000000	0.010494869484404	-0.0054147371979909
1.0924000000000	0.010560583343275	-0.0051088274732027
1.0931000000000	0.010609102005354	-0.0048510225601402
1.0938000000000	0.010672111198106	-0.0047208648047862
1.0945000000000	0.010755687000000	-0.0046005929000000
1.0952000000000	0.010879827670424	-0.0045018007128020
1.0959000000000	0.010871268201674	-0.0042769487296786
1.0966000000000	0.010905916073511	-0.0041007301987610
1.0973000000000	0.011009436021342	-0.0039774307754505
1.0980000000000	0.011044521000000	-0.0037536162000000
1.0987000000000	0.011214351396421	-0.0035575212073779
1.0994000000000	0.011240820474240	-0.0033393213283935
1.1001000000000	0.011309650347733	-0.0031698840762489
1.1008000000000	0.011419970088622	-0.0030363936767810
1.1015000000000	0.011378516000000	-0.0028571717000001
1.1022000000000	0.011482436264585	-0.0027016810317618
1.1029000000000	0.011466071879813	-0.0025589615562508
1.1036000000000	0.011475885613047	-0.0023166435552353
1.1043000000000	0.011536705470884	-0.0020145515933928
1.1050000000000	0.011568417000000	-0.0018530167000000
1.1057000000000	0.011591598767474	-0.0017026548107726
1.1064000000000	0.011649584715441	-0.0015597487188569
1.1071000000000	0.011685153468680	-0.0014069680841536
1.1078000000000	0.011685910150991	-0.0012267476679160
1.1085000000000	0.011683858000000	-0.00099851203000000
1.1092000000000	0.011708390200736	-0.00083993986110809
1.1099000000000	0.011747694136707	-0.00063448389983945
1.1106000000000	0.011768164601516	-0.00043262489771401
1.1113000000000	0.011764775819118	-0.00023927206870940
1.1120000000000	0.011757104000000	-1.1311645000000e-05
1.1127000000000	0.011683175254596	0.00015524141591439
1.1134000000000	0.011667055756893	0.00033545450839772
1.1141000000000	0.011655384680690	0.00048471740902643
1.1148000000000	0.011636831085057	0.00063276634796587
1.1155000000000	0.011636655000000	0.00088639778999992
1.1162000000000	0.011601896294009	0.0010083660126640
1.1169000000000	0.011596403549335	0.0012194781085795
1.1176000000000	0.011591852700253	0.0014101044692988
1.1183000000000	0.011586059679149	0.0015422453508512
1.1190000000000	0.011596901000000	0.0016514368000000
1.1197000000000	0.011498590179943	0.0018808970100415
1.1204000000000	0.011492538550222	0.0020940489517732
1.1211000000000	0.011480035408090	0.0022937209159348
1.1218000000000	0.011420897699862	0.0024554147664100
1.1225000000000	0.011334757000000	0.0025332428000000
1.1232000000000	0.011354364075963	0.0028016482825621
1.1239000000000	0.011288886872807	0.0029519745155184
1.1246000000000	0.011224030866574	0.0030980635291987
1.1253000000000	0.011189746017510	0.0032668054563066
1.1260000000000	0.011166882000000	0.0033943220000000
1.1267000000000	0.011115735994702	0.0035467727077244
1.1274000000000	0.011060835182486	0.0037139925774327
1.1281000000000	0.010998281595049	0.0038583635841622
1.1288000000000	0.010934090244616	0.0039870458417045
1.1295000000000	0.010881216000000	0.0041523877999999
1.1302000000000	0.010886808251479	0.0043995751733582
1.1309000000000	0.010841458219963	0.0045555679792080
1.1316000000000	0.010761398354293	0.0046748722420755
1.1323000000000	0.010663981574880	0.0048058355008905
1.1330000000000	0.010568614000000	0.0049900282000000
1.1337000000000	0.010535273192185	0.0051053866476223
1.1344000000000	0.010505176485291	0.0052604735025092
1.1351000000000	0.010412463152487	0.0054528165933956
1.1358000000000	0.010259522750580	0.0056442243631489
1.1365000000000	0.010120177000000	0.0057674414000000
1.1372000000000	0.010044060125554	0.0059860538391083
1.1379000000000	0.0099951047105605	0.0061299520196998
1.1386000000000	0.0099974520468033	0.0062582976418385
1.1393000000000	0.0099986306178479	0.0063956947966242
1.1400000000000	0.0098716924000000	0.0065288516000000
1.1407000000000	0.0098038849826154	0.0066365352277797
1.1414000000000	0.0097416512846082	0.0067678974410122
1.1421000000000	0.0096387645165530	0.0069042112543251
1.1428000000000	0.0095038256580811	0.0070271956656028
1.1435000000000	0.0094000399000000	0.0071230894000000
1.1442000000000	0.0093742398735826	0.0072447105874281
1.1449000000000	0.0092970201289456	0.0073991124301525
1.1456000000000	0.0091720242325469	0.0075528772343213
1.1463000000000	0.0090383562846299	0.0076949085097497
1.1470000000000	0.0089687249000000	0.0078396881000000
1.1477000000000	0.0088694772990979	0.0080269261417595
1.1484000000000	0.0087577380984299	0.0081552665589376
1.1491000000000	0.0086542264397702	0.0082855202421658
1.1498000000000	0.0085522168856571	0.0084227519808394
1.1505000000000	0.0084216874000000	0.0085144034000000
1.1512000000000	0.0083129583778032	0.0086036156938072
1.1519000000000	0.0082327380862268	0.0087082217916698
1.1526000000000	0.0081090805120106	0.0088208823318342
1.1533000000000	0.0079524569382489	0.0089385801811610
1.1540000000000	0.0078553092000000	0.0090683689000000
1.1547000000000	0.0077464535485187	0.0091512969441471
1.1554000000000	0.0075859955512030	0.0092847282816324
1.1561000000000	0.0074589373367439	0.0093776463756554
1.1568000000000	0.0073523468866366	0.0094260545848413
1.1575000000000	0.0071503213000000	0.0095058456000000
1.1582000000000	0.0070023863265851	0.0096409193222693
1.1589000000000	0.0068744577538865	0.0097582132989213
1.1596000000000	0.0067418933493467	0.0098361278416036
1.1603000000000	0.0066030409046914	0.0098896658974624
1.1610000000000	0.0064770426000000	0.0099718580000000
1.1617000000000	0.0062653457762085	0.010121276714814
1.1624000000000	0.0061181320379359	0.010191227763030
1.1631000000000	0.0059860959174293	0.010254996832899
1.1638000000000	0.0058469097449970	0.010330438485637
1.1645000000000	0.0057088877000000	0.010382334000000
1.1652000000000	0.0055743548963651	0.010449977038696
1.1659000000000	0.0054407602990047	0.010517763418775
1.1666000000000	0.0052803398140765	0.010586798102139
1.1673000000000	0.0051021385046090	0.010664632995456
1.1680000000000	0.0049513020000001	0.010768077000000
1.1687000000000	0.0048260614783846	0.010802188335177
1.1694000000000	0.0046701894611309	0.010844867593351
1.1701000000000	0.0045136190689259	0.010909533313402
1.1708000000000	0.0043708852809435	0.010971546660087
1.1715000000000	0.0042437287000000	0.010967174000000
1.1722000000000	0.0040580176591889	0.011068839179392
1.1729000000000	0.0039026527890190	0.011129212194796
1.1736000000000	0.0037418244380048	0.011197106206067
1.1743000000000	0.0035747823051252	0.011268575756232
1.1750000000000	0.0034398148000000	0.011289567000000
1.1757000000000	0.0032986490537111	0.011327320999141
1.1764000000000	0.0031474521880762	0.011382269024917
1.1771000000000	0.0030075058830728	0.011424404206933
1.1778000000000	0.0028642672024108	0.011470861046464
1.1785000000000	0.0026639034000000	0.011583477000000
1.1792000000000	0.0025655638380543	0.011604266903657
1.1799000000000	0.0024159613593372	0.011653665978954
1.1806000000000	0.0022687208790265	0.011698697923642
1.1813000000000	0.0021310202133897	0.011729820854098
1.1820000000000	0.0019620117000001	0.011758037000000
1.1827000000000	0.0018188205820823	0.011801942861072
1.1834000000000	0.0017161836400841	0.011854141672610
1.1841000000000	0.0015852118716329	0.011880718777711
1.1848000000000	0.0014258092143701	0.011900749968029
1.1855000000000	0.0013038628000000	0.011990056000000
1.1862000000000	0.0011684066331035	0.011942959441995
1.1869000000000	0.0010293965597606	0.011969881076151
1.1876000000000	0.00087381531247538	0.012010883302819
1.1883000000000	0.00071159791654569	0.012036453139220
1.1890000000000	0.00057403027000000	0.012048896000000
1.1897000000000	0.00049721609403535	0.012085958833118
1.1904000000000	0.00033003023215714	0.012114110751667
1.1911000000000	0.00016035539714505	0.012132001657478
1.1918000000000	3.1894412624453e-05	0.012135056274632
1.1925000000000	-5.6171840999970e-05	0.012112453000000
1.1932000000000	-0.00019632204116951	0.012118322139033
1.1939000000000	-0.00032466740021761	0.012120492981787
1.1946000000000	-0.00044056422975377	0.012110963786872
1.1953000000000	-0.00054702837774647	0.012112792745053
1.1960000000000	-0.00065206433999997	0.012179935000000
1.1967000000000	-0.00082577145436090	0.012143523731533
1.1974000000000	-0.00095494499481255	0.012123230205109
1.1981000000000	-0.0010981114588919	0.012115449821269
1.1988000000000	-0.0012591121021510	0.012120038747246
1.1995000000000	-0.0013873489000000	0.012143569000000
1.2002000000000	-0.0015023729334605	0.012069881277885
1.2009000000000	-0.0016391671821744	0.012048169074768
1.2016000000000	-0.0017948312540032	0.012012531453594
1.2023000000000	-0.0019425180652251	0.011969470463422
1.2030000000000	-0.0020357226000000	0.011999195000000
1.2037000000000	-0.0021290689569856	0.011920014814359
1.2044000000000	-0.0023542168551870	0.011883188584001
1.2051000000000	-0.0025182694796496	0.011829982319276
1.2058000000000	-0.0025948507617347	0.011759292492921
1.2065000000000	-0.0027262620000000	0.011716242000000
1.2072000000000	-0.0028796695867990	0.011655667207719
1.2079000000000	-0.0030097801288450	0.011604242240787
1.2086000000000	-0.0031408414614330	0.011533987769783
1.2093000000000	-0.0032908981459811	0.011450900262582
1.2100000000000	-0.0034741815000000	0.011395077000000
1.2107000000000	-0.0036161934410996	0.011394058505675
1.2114000000000	-0.0037643702349527	0.011300614160911
1.2121000000000	-0.0039150177141774	0.011214842167238
1.2128000000000	-0.0040511758300214	0.011157701776808
1.2135000000000	-0.0041371570000000	0.011072004000000
1.2142000000000	-0.0043108905334747	0.010993593781000
1.2149000000000	-0.0044098633697601	0.010910764690675
1.2156000000000	-0.0045416244614119	0.010832125830947
1.2163000000000	-0.0047121503362236	0.010750286557530
1.2170000000000	-0.0048258118000000	0.010648159000000
1.2177000000000	-0.0049141967230466	0.010617177855204
1.2184000000000	-0.0050674931913709	0.010540786971771
1.2191000000000	-0.0051965067257571	0.010428065209645
1.2198000000000	-0.0052975646614238	0.010319693351878
1.2205000000000	-0.0054538990000000	0.010282553000000
1.2212000000000	-0.0055941316501375	0.010196705803440
1.2219000000000	-0.0057053296126970	0.010108124726376
1.2226000000000	-0.0058205940971239	0.010037109132898
1.2233000000000	-0.0059279564861573	0.0099689178661483
1.2240000000000	-0.0059686932000000	0.0098561943000000
1.2247000000000	-0.0061722079398228	0.0097421675681658
1.2254000000000	-0.0063213066171614	0.0096413332236534
1.2261000000000	-0.0064259334932897	0.0095463634286939
1.2268000000000	-0.0065069744123497	0.0094507746519441
1.2275000000000	-0.0065962719000000	0.0093488581000000
1.2282000000000	-0.0067260234925057	0.0092587194282687
1.2289000000000	-0.0068310609822982	0.0091916967185048
1.2296000000000	-0.0069101934984940	0.0090959875464693
1.2303000000000	-0.0069834157647321	0.0089723982778898
1.2310000000000	-0.0070947814000000	0.0088731078000000
1.2317000000000	-0.0072174754557759	0.0087733821396203
1.2324000000000	-0.0073212703357135	0.0086832545963791
1.2331000000000	-0.0074130161800981	0.0086106393242086
1.2338000000000	-0.0075103152874385	0.0085391593781976
1.2345000000000	-0.0076402738000000	0.0084275184000000
1.2352000000000	-0.0077196516115588	0.0083167105511426
1.2359000000000	-0.0077744166239158	0.0082340356537859
1.2366000000000	-0.0078435610064263	0.0081545443080034
1.2373000000000	-0.0079362347190398	0.0080445890368819
1.2380000000000	-0.0080308113000000	0.0078631751000000
1.2387000000000	-0.0080808050634188	0.0078293172884428
1.2394000000000	-0.0081675714884407	0.0076948621106839
1.2401000000000	-0.0082467817322874	0.0075687362633366
1.2408000000000	-0.0083128141062146	0.0074808361920442
1.2415000000000	-0.0083933761000000	0.0073804976000000
1.2422000000000	-0.0084869148287842	0.0072647940159861
1.2429000000000	-0.0085390972181125	0.0072179490835856
1.2436000000000	-0.0086057374581646	0.0071164882343426
1.2443000000000	-0.0086919034643226	0.0069564191822405
1.2450000000000	-0.0087589342000000	0.0068552350000000
1.2457000000000	-0.0088260910056701	0.0067683494153789
1.2464000000000	-0.0089127084315256	0.0066445323997304
1.2471000000000	-0.0089781406715919	0.0065057151803739
1.2478000000000	-0.0090349903961499	0.0063708933506828
1.2485000000000	-0.0091487467000000	0.0062528076000000
1.2492000000000	-0.0092040349276290	0.0061614631950799
