#Parameters = {erbase1=3.5; erbase11=0.03; a=52.07; b=12.07; c=38.862; depth=3; width=3; wx=165.1; wth=12; wy=82.55; wz=558.8; wx2=250; wy2=220; er1=7; er11=0.12}
#"Frequency / GHz"	"S5,5 [Real/Imaginary Part] [Re]"	"S5,5 [Real/Imaginary Part] [Im]"
#-------------------------------------------------------------------------------------
1.0000000000000	-0.22764656000000	-0.056651894000000
1.0007000000000	-0.22557195366611	-0.061540267765240
1.0014000000000	-0.22338672669740	-0.066382750891950
1.0021000000000	-0.22123180419831	-0.071145305429184
1.0028000000000	-0.21870487963238	-0.076009014016687
1.0035000000000	-0.21644810000000	-0.080543280000000
1.0042000000000	-0.21382120024066	-0.085111146765287
1.0049000000000	-0.21110458090916	-0.089544612317640
1.0056000000000	-0.20844835329103	-0.093930002909217
1.0063000000000	-0.20568005463086	-0.098199500011796
1.0070000000000	-0.20293130000000	-0.10238714000000
1.0077000000000	-0.20003595497352	-0.10648988910990
1.0084000000000	-0.19703909203369	-0.11053477462212
1.0091000000000	-0.19414663220491	-0.11461138881521
1.0098000000000	-0.19097406825974	-0.11841022089735
1.0105000000000	-0.18787989000000	-0.12213914000000
1.0112000000000	-0.18462898257653	-0.12585378591651
1.0119000000000	-0.18135598906565	-0.12955189084306
1.0126000000000	-0.17799117323812	-0.13293247789192
1.0133000000000	-0.17451250956496	-0.13639114991327
1.0140000000000	-0.17132923000000	-0.13966657000000
1.0147000000000	-0.16782657825823	-0.14301155588130
1.0154000000000	-0.16419232747807	-0.14608729127768
1.0161000000000	-0.16066405203780	-0.14899518861329
1.0168000000000	-0.15706069122525	-0.15213522370608
1.0175000000000	-0.15346758000000	-0.15508512000000
1.0182000000000	-0.14974767505107	-0.15777108557519
1.0189000000000	-0.14606851483298	-0.16046121900160
1.0196000000000	-0.14233308195780	-0.16312353046759
1.0203000000000	-0.13845443219223	-0.16560686504106
1.0210000000000	-0.13467644000000	-0.16811664000000
1.0217000000000	-0.13089474157110	-0.17036086549681
1.0224000000000	-0.12703562511851	-0.17255248366432
1.0231000000000	-0.12301748043636	-0.17488081327006
1.0238000000000	-0.11919960258760	-0.17680514287977
1.0245000000000	-0.11542247000000	-0.17878604000000
1.0252000000000	-0.11135448520363	-0.18070696085158
1.0259000000000	-0.10752099735161	-0.18251002974421
1.0266000000000	-0.10348132169649	-0.18415604204049
1.0273000000000	-0.099459553060104	-0.18583538555572
1.0280000000000	-0.095554002000000	-0.18737786000000
1.0287000000000	-0.091487069565341	-0.18896005342172
1.0294000000000	-0.087438971513860	-0.19026855235190
1.0301000000000	-0.083495828798202	-0.19162847432694
1.0308000000000	-0.079424577647079	-0.19275139314607
1.0315000000000	-0.075390436000000	-0.19386536000000
1.0322000000000	-0.071437134264252	-0.19504946056313
1.0329000000000	-0.067355904754437	-0.19605769105750
1.0336000000000	-0.063429036740728	-0.19687731250545
1.0343000000000	-0.059363008532249	-0.19773163728011
1.0350000000000	-0.055441301000001	-0.19848858000000
1.0357000000000	-0.051454445013028	-0.19910871632299
1.0364000000000	-0.047383607047340	-0.19973161980066
1.0371000000000	-0.043343084525622	-0.20027084758343
1.0378000000000	-0.039368045462938	-0.20067987964790
1.0385000000000	-0.035439424000000	-0.20084018000000
1.0392000000000	-0.031465615832920	-0.20130681774743
1.0399000000000	-0.027486519920839	-0.20151900947700
1.0406000000000	-0.023506705659105	-0.20164561408622
1.0413000000000	-0.019692052182724	-0.20163632233069
1.0420000000000	-0.015570615000000	-0.20160568000000
1.0427000000000	-0.011774621123834	-0.20154202740777
1.0434000000000	-0.0078622742352510	-0.20128052235255
1.0441000000000	-0.0040505789474125	-0.20113157564793
1.0448000000000	-0.00022356023409664	-0.20087043926032
1.0455000000000	0.0035848462000000	-0.20045936000000
1.0462000000000	0.0073987674133088	-0.20000199096891
1.0469000000000	0.011258516906423	-0.19957217486601
1.0476000000000	0.014917781341549	-0.19897195236094
1.0483000000000	0.018645832545792	-0.19823023407255
1.0490000000000	0.022304750999999	-0.19761406000000
1.0497000000000	0.025929250022627	-0.19677234010621
1.0504000000000	0.029546019968116	-0.19595657631103
1.0511000000000	0.033223246171652	-0.19510057934673
1.0518000000000	0.036669569556082	-0.19413119821746
1.0525000000000	0.040271118000000	-0.19305480000000
1.0532000000000	0.043701615139243	-0.19201971328133
1.0539000000000	0.047146884814561	-0.19090696527948
1.0546000000000	0.050601538494249	-0.18968414483322
1.0553000000000	0.054075356903728	-0.18850769595531
1.0560000000000	0.057432819000000	-0.18715155000000
1.0567000000000	0.060805436790714	-0.18570048682174
1.0574000000000	0.064078450681755	-0.18432631154661
1.0581000000000	0.067308811207818	-0.18288012908904
1.0588000000000	0.070455112494733	-0.18140723652459
1.0595000000000	0.073560922999999	-0.17973422000000
1.0602000000000	0.076784265832231	-0.17814275095784
1.0609000000000	0.079863404496376	-0.17638938772628
1.0616000000000	0.083056319406043	-0.17468691288010
1.0623000000000	0.085969501324974	-0.17288832091944
1.0630000000000	0.088889680999999	-0.17098354000000
1.0637000000000	0.092089152855507	-0.16918527226485
1.0644000000000	0.094885739253742	-0.16724065240719
1.0651000000000	0.097736993200222	-0.16523648461865
1.0658000000000	0.10044148507883	-0.16324600351351
1.0665000000000	0.10331387000000	-0.16123407000000
1.0672000000000	0.10587475116616	-0.15911008891202
1.0679000000000	0.10853253719590	-0.15699508791972
1.0686000000000	0.11111507558340	-0.15487249642525
1.0693000000000	0.11365523039890	-0.15264413704849
1.0700000000000	0.11628453000000	-0.15045235000000
1.0707000000000	0.11878317694088	-0.14807597501224
1.0714000000000	0.12120553050458	-0.14581807847385
1.0721000000000	0.12358065327291	-0.14353591918371
1.0728000000000	0.12592147078110	-0.14112780600503
1.0735000000000	0.12817375000000	-0.13858460000000
1.0742000000000	0.13037683934587	-0.13620292628626
1.0749000000000	0.13248976737976	-0.13379582075913
1.0756000000000	0.13477878951940	-0.13122799931128
1.0763000000000	0.13679451677772	-0.12879985197620
1.0770000000000	0.13889749000000	-0.12629096000000
1.0777000000000	0.14087776912310	-0.12358238407316
1.0784000000000	0.14282294763574	-0.12105363663186
1.0791000000000	0.14478026491264	-0.11847585686092
1.0798000000000	0.14657848132171	-0.11580720228439
1.0805000000000	0.14838696000000	-0.11321576000000
1.0812000000000	0.15015185496805	-0.11045134087996
1.0819000000000	0.15190733666444	-0.10762352258729
1.0826000000000	0.15352771946291	-0.10492401471773
1.0833000000000	0.15513972092581	-0.10226280920131
1.0840000000000	0.15673639000000	-0.099461317000000
1.0847000000000	0.15824050642796	-0.096727837892512
1.0854000000000	0.15969969058078	-0.093843102643792
1.0861000000000	0.16115201296733	-0.091025290289892
1.0868000000000	0.16251675565228	-0.088274625619764
1.0875000000000	0.16379705000000	-0.085340090000001
1.0882000000000	0.16502965965186	-0.082582327129090
1.0889000000000	0.16627139333020	-0.079681791638622
1.0896000000000	0.16752780064490	-0.076818713144209
1.0903000000000	0.16851777348550	-0.073957975409675
1.0910000000000	0.16960958000000	-0.070993908000000
1.0917000000000	0.17065043163206	-0.068134131141546
1.0924000000000	0.17165428921589	-0.065310994564529
1.0931000000000	0.17262112878348	-0.062291504456901
1.0938000000000	0.17340838102883	-0.059456585067822
1.0945000000000	0.17422017000000	-0.056453757000000
1.0952000000000	0.17494262310950	-0.053563351923285
1.0959000000000	0.17569949814744	-0.050481805043912
1.0966000000000	0.17634265385461	-0.047622157680270
1.0973000000000	0.17701418923125	-0.044708810554406
1.0980000000000	0.17755011000000	-0.041758072000000
1.0987000000000	0.17803640663023	-0.038843669766240
1.0994000000000	0.17851169758862	-0.035841797281643
1.1001000000000	0.17903328245162	-0.032949687069846
1.1008000000000	0.17928975895745	-0.029982883511301
1.1015000000000	0.17974757000000	-0.027013291000001
1.1022000000000	0.17995449799572	-0.024030620393116
1.1029000000000	0.18017848245290	-0.021072688694374
1.1036000000000	0.18036413954951	-0.018193393112656
1.1043000000000	0.18053667801500	-0.015192077042922
1.1050000000000	0.18062587000000	-0.012350138000000
1.1057000000000	0.18065232423192	-0.0093961681766982
1.1064000000000	0.18066348090306	-0.0064675507732954
1.1071000000000	0.18065845871837	-0.0035047635858172
1.1078000000000	0.18053059285547	-0.00059239652153250
1.1085000000000	0.18048486000000	0.0023108872000000
1.1092000000000	0.18018807860089	0.0052090355039986
1.1099000000000	0.17997336405881	0.0080669516454913
1.1106000000000	0.17966354625427	0.010937672093547
1.1113000000000	0.17929463789316	0.013834729157902
1.1120000000000	0.17905352000000	0.016675130000000
1.1127000000000	0.17857026399441	0.019539057518788
1.1134000000000	0.17814030386973	0.022275350955306
1.1141000000000	0.17768359792708	0.025173011647250
1.1148000000000	0.17713316606283	0.027941416184544
1.1155000000000	0.17660765000000	0.030725486999999
1.1162000000000	0.17598564119940	0.033466220748589
1.1169000000000	0.17525808726680	0.036277618983089
1.1176000000000	0.17461055745650	0.039027576016354
1.1183000000000	0.17396741081820	0.041786444774595
1.1190000000000	0.17314368000000	0.044415306000000
1.1197000000000	0.17233699673480	0.047127884652323
1.1204000000000	0.17149331286282	0.049791104960414
1.1211000000000	0.17057239777966	0.052480419489451
1.1218000000000	0.16968841559524	0.055019733591113
1.1225000000000	0.16862093000000	0.057669047000000
1.1232000000000	0.16772820079411	0.060193187453634
1.1239000000000	0.16667648785736	0.062786276729812
1.1246000000000	0.16548755931952	0.065298476534323
1.1253000000000	0.16451691690865	0.067893953151969
1.1260000000000	0.16332059000000	0.070387117999999
1.1267000000000	0.16204532587662	0.072837235961870
1.1274000000000	0.16084436874789	0.075254314668586
1.1281000000000	0.15960085829541	0.077752237855138
1.1288000000000	0.15824655932974	0.080160571927607
1.1295000000000	0.15701494000000	0.082503862999999
1.1302000000000	0.15562850196680	0.084925902420159
1.1309000000000	0.15425179322557	0.087168033910987
1.1316000000000	0.15284415197575	0.089527416630877
1.1323000000000	0.15143631664434	0.091801035290917
1.1330000000000	0.14986883000000	0.094016768000000
1.1337000000000	0.14839473779038	0.096315274766668
1.1344000000000	0.14687568106428	0.098534803962953
1.1351000000000	0.14527249103010	0.10064332014831
1.1358000000000	0.14370518161174	0.10275841436913
1.1365000000000	0.14211039000000	0.10490573000000
1.1372000000000	0.14042714634481	0.10704225406341
1.1379000000000	0.13880755536744	0.10904566529547
1.1386000000000	0.13708797698805	0.11110244092198
1.1393000000000	0.13542154860326	0.11308217465695
1.1400000000000	0.13355899000000	0.11508439000000
1.1407000000000	0.13189146725911	0.11702604143468
1.1414000000000	0.13013773089901	0.11895216618008
1.1421000000000	0.12818365690281	0.12082964219436
1.1428000000000	0.12635934335299	0.12273682979403
1.1435000000000	0.12446630000000	0.12460442000000
1.1442000000000	0.12255439596800	0.12634194620395
1.1449000000000	0.12057936895665	0.12806421453870
1.1456000000000	0.11867674854477	0.12985426900252
1.1463000000000	0.11674752824957	0.13143957059288
1.1470000000000	0.11475279000000	0.13318501000000
1.1477000000000	0.11269614085853	0.13476893035789
1.1484000000000	0.11074322947969	0.13630524201057
1.1491000000000	0.10857642856647	0.13789723552932
1.1498000000000	0.10661425873304	0.13945802673759
1.1505000000000	0.10447019000000	0.14092956000000
1.1512000000000	0.10236140746726	0.14241949456329
1.1519000000000	0.10032107458239	0.14389246752840
1.1526000000000	0.098086241033592	0.14521206855815
1.1533000000000	0.096032022492485	0.14659139473167
1.1540000000000	0.093714878000001	0.14791901000000
1.1547000000000	0.091519317088226	0.14914621659505
1.1554000000000	0.089310907919793	0.15049231172230
1.1561000000000	0.087122327815229	0.15165476432002
1.1568000000000	0.084847186865141	0.15292852973080
1.1575000000000	0.082544446000000	0.15400945000000
1.1582000000000	0.080263789849508	0.15512932576822
1.1589000000000	0.078074846192827	0.15623470741813
1.1596000000000	0.075760346258464	0.15730513673271
1.1603000000000	0.073402438072267	0.15831832070152
1.1610000000000	0.071045198000000	0.15934502000000
1.1617000000000	0.068760080456890	0.16022077754904
1.1624000000000	0.066422907316270	0.16112244529450
1.1631000000000	0.064011003330517	0.16200550516297
1.1638000000000	0.061648302109584	0.16287081072361
1.1645000000000	0.059252780000000	0.16369380000000
1.1652000000000	0.056916446306129	0.16447712393500
1.1659000000000	0.054586251121140	0.16518851975586
1.1666000000000	0.052078680119728	0.16591110947328
1.1673000000000	0.049652319931244	0.16665515558229
1.1680000000000	0.047346488000001	0.16719462000000
1.1687000000000	0.044876668248091	0.16789994674958
1.1694000000000	0.042486038179690	0.16847812959171
1.1701000000000	0.040045652523430	0.16900334224194
1.1708000000000	0.037645231246081	0.16946864343930
1.1715000000000	0.035244264000000	0.17002597000000
1.1722000000000	0.032757568770551	0.17038341249995
1.1729000000000	0.030262351439467	0.17080623920380
1.1736000000000	0.027841093294814	0.17117824226232
1.1743000000000	0.025425484052122	0.17158822393421
1.1750000000000	0.022993026000000	0.17190343000000
1.1757000000000	0.020580805098799	0.17210490305852
1.1764000000000	0.018119584192084	0.17242858038400
1.1771000000000	0.015704053580457	0.17271064077574
1.1778000000000	0.013248116801744	0.17282048555362
1.1785000000000	0.010858503000000	0.17300312000000
1.1792000000000	0.0084981172678164	0.17308574389953
1.1799000000000	0.0060438921873403	0.17310481594083
1.1806000000000	0.0035797204790888	0.17320286772581
1.1813000000000	0.0011886720565033	0.17328203875787
1.1820000000000	-0.0012240752999992	0.17323224000000
1.1827000000000	-0.0035782313735745	0.17314680545627
1.1834000000000	-0.0059848080400536	0.17312459197423
1.1841000000000	-0.0083917010176188	0.17300588025532
1.1848000000000	-0.010713851098378	0.17279386356926
1.1855000000000	-0.013170786000000	0.17257653000000
1.1862000000000	-0.015507338513090	0.17245883525625
1.1869000000000	-0.017850388738794	0.17218458769215
1.1876000000000	-0.020241784472360	0.17191537034327
1.1883000000000	-0.022555132587383	0.17162796261609
1.1890000000000	-0.024899490000000	0.17124110000000
1.1897000000000	-0.027223595608406	0.17087956343225
1.1904000000000	-0.029517070998574	0.17054603920814
1.1911000000000	-0.031862567874492	0.17009807714447
1.1918000000000	-0.034109083540194	0.16962484106780
1.1925000000000	-0.036428808999999	0.16913752000000
1.1932000000000	-0.038689270569250	0.16856458629623
1.1939000000000	-0.040961295486546	0.16801496234745
1.1946000000000	-0.043183672279906	0.16750212802705
1.1953000000000	-0.045520542044953	0.16678865619586
1.1960000000000	-0.047736681999999	0.16619907000000
1.1967000000000	-0.049968875545848	0.16539438357759
1.1974000000000	-0.052152950242321	0.16471626486153
1.1981000000000	-0.054354219285375	0.16396225382316
1.1988000000000	-0.056537613622590	0.16314633668294
1.1995000000000	-0.058701392000000	0.16241907000000
1.2002000000000	-0.060873610184348	0.16149638407315
1.2009000000000	-0.063056494850966	0.16065083610574
1.2016000000000	-0.065245105366678	0.15973259634492
1.2023000000000	-0.067337893215319	0.15882696884479
1.2030000000000	-0.069544993000000	0.15791343000000
1.2037000000000	-0.071582298287866	0.15683648110127
1.2044000000000	-0.073637617852517	0.15584433637798
1.2051000000000	-0.075780970733316	0.15473391098371
1.2058000000000	-0.077729404876118	0.15371879199092
1.2065000000000	-0.079891710999999	0.15269084000000
1.2072000000000	-0.081886471260217	0.15146846487350
1.2079000000000	-0.083882000072988	0.15039861515587
1.2086000000000	-0.085860321714619	0.14923576010365
1.2093000000000	-0.087841063291208	0.14797853950514
1.2100000000000	-0.089751750000000	0.14670785000000
1.2107000000000	-0.091711779807505	0.14553003922740
1.2114000000000	-0.093603273860336	0.14422976062318
1.2121000000000	-0.095531622329209	0.14292175788368
1.2128000000000	-0.097429547127501	0.14163716474909
1.2135000000000	-0.099294394000000	0.14033213000000
1.2142000000000	-0.10119104617412	0.13887795813726
1.2149000000000	-0.10301072164050	0.13741365384254
1.2156000000000	-0.10480654321775	0.13606338059588
1.2163000000000	-0.10658391009714	0.13461092267952
1.2170000000000	-0.10842583000000	0.13320103000000
1.2177000000000	-0.11012529724901	0.13167092780718
1.2184000000000	-0.11177013958779	0.13019405455629
1.2191000000000	-0.11351920660704	0.12865800730141
1.2198000000000	-0.11516980844167	0.12710284556653
1.2205000000000	-0.11678547000000	0.12555821000000
1.2212000000000	-0.11851015546667	0.12396022315870
1.2219000000000	-0.12007404803728	0.12241000907786
1.2226000000000	-0.12159387422282	0.12075251146416
1.2233000000000	-0.12314614594227	0.11917453455275
1.2240000000000	-0.12472744000000	0.11738297000000
1.2247000000000	-0.12623777716620	0.11586769124453
1.2254000000000	-0.12771086905318	0.11416285048282
1.2261000000000	-0.12915527377972	0.11242782486774
1.2268000000000	-0.13055526224624	0.11077069840829
1.2275000000000	-0.13191983000000	0.10895316000000
1.2282000000000	-0.13332566901222	0.10730536482741
1.2289000000000	-0.13472250141477	0.10553685388487
1.2296000000000	-0.13606530986553	0.10375638330295
1.2303000000000	-0.13729820492754	0.10188201849112
1.2310000000000	-0.13860692000000	0.10014163000000
1.2317000000000	-0.13989572984131	0.098313229782681
1.2324000000000	-0.14106562681817	0.096551891013152
1.2331000000000	-0.14224691049708	0.094631832981652
1.2338000000000	-0.14344415050025	0.092662576161478
1.2345000000000	-0.14457883000000	0.090856634000001
1.2352000000000	-0.14570986416661	0.088993003486641
1.2359000000000	-0.14676753970807	0.087119127326424
1.2366000000000	-0.14791672962090	0.085180085466788
1.2373000000000	-0.14887488077602	0.083301218242936
1.2380000000000	-0.14996783000000	0.081327043000000
1.2387000000000	-0.15096678300636	0.079409522833027
1.2394000000000	-0.15187975134734	0.077416430239014
1.2401000000000	-0.15282745939318	0.075505838072038
1.2408000000000	-0.15377224533526	0.073477472696674
1.2415000000000	-0.15452220000000	0.071478717000000
1.2422000000000	-0.15541419796583	0.069426581831228
1.2429000000000	-0.15629760772615	0.067453833649143
1.2436000000000	-0.15698750813620	0.065493869959850
1.2443000000000	-0.15781838928103	0.063422515707419
1.2450000000000	-0.15853097000000	0.061384019000000
1.2457000000000	-0.15933400451576	0.059407488653922
1.2464000000000	-0.15998952635179	0.057321336386237
1.2471000000000	-0.16071856466708	0.055232722956879
1.2478000000000	-0.16136980618797	0.053178549491840
1.2485000000000	-0.16199560000000	0.051050324000001
1.2492000000000	-0.16252157920945	0.049031267253633
1.2499000000000	-0.16313414111063	0.046904734392157
1.2506000000000	-0.16368779931826	0.044841329910848
1.2513000000000	-0.16415340658442	0.042766999901530
1.2520000000000	-0.16466916000000	0.040620584000000
1.2527000000000	-0.16511194092058	0.038579116186424
1.2534000000000	-0.16564290221498	0.036424959558700
1.2541000000000	-0.16589226522566	0.034292293169320
1.2548000000000	-0.16633327631904	0.032211067998652
1.2555000000000	-0.16670322000000	0.030005431000000
1.2562000000000	-0.16702229009986	0.027923591715326
1.2569000000000	-0.16730564895079	0.025742271248694
1.2576000000000	-0.16762285688691	0.023692123796989
1.2583000000000	-0.16788800941408	0.021549474836458
1.2590000000000	-0.16809553000000	0.019415265000001
1.2597000000000	-0.16824318827292	0.017330128422856
1.2604000000000	-0.16842552242287	0.015183586260530
