#Parameters = {rdisk=19.1389; hdisk=2.921; rin=18.3515; hcup=25.5143; halcohol=17.78; wx=165.1; wth=12; wy=82.55; wz=558.8; wx2=250; wy2=220; erbase1=3.5; erbase11=0.03; a=52.07; b=12.7; c=38.862; depth=4; delth=2; er1=8; er11=0.3}
#"Frequency / GHz"	"S5,5 [Real/Imaginary Part] [Re]"	"S5,5 [Real/Imaginary Part] [Im]"
#-------------------------------------------------------------------------------------
1.0000000000000	-0.22504510000000	-0.040269535000000
1.0007000000000	-0.22341936473128	-0.045200453842005
1.0014000000000	-0.22171253347996	-0.049857909035212
1.0021000000000	-0.21995863390519	-0.054551021020593
1.0028000000000	-0.21797701351337	-0.059351083343065
1.0035000000000	-0.21612015000000	-0.063830279000000
1.0042000000000	-0.21395547057915	-0.068452884636959
1.0049000000000	-0.21178642078484	-0.072782519546841
1.0056000000000	-0.20944327509054	-0.077255330207525
1.0063000000000	-0.20723337769564	-0.081417285067793
1.0070000000000	-0.20492615000000	-0.085761948999998
1.0077000000000	-0.20242874156266	-0.089877811794679
1.0084000000000	-0.19973875099682	-0.093951712071534
1.0091000000000	-0.19736382913495	-0.098159426758462
1.0098000000000	-0.19473083156060	-0.10197689560152
1.0105000000000	-0.19192423000000	-0.10567155000000
1.0112000000000	-0.18915493423402	-0.10952707445946
1.0119000000000	-0.18635811892509	-0.11332967371692
1.0126000000000	-0.18343838161399	-0.11678981834332
1.0133000000000	-0.18041058062651	-0.12032515785699
1.0140000000000	-0.17745455000000	-0.12370533000000
1.0147000000000	-0.17446193554644	-0.12719986422868
1.0154000000000	-0.17122578994834	-0.13050852278138
1.0161000000000	-0.16816099945881	-0.13352355451327
1.0168000000000	-0.16493802082897	-0.13686399308507
1.0175000000000	-0.16168110000000	-0.13993080000000
1.0182000000000	-0.15830242991174	-0.14281181327281
1.0189000000000	-0.15508408054511	-0.14573667509977
1.0196000000000	-0.15174494973965	-0.14853880076557
1.0203000000000	-0.14818597681187	-0.15130409897769
1.0210000000000	-0.14483264000000	-0.15396196000000
1.0217000000000	-0.14138158255708	-0.15652438131021
1.0224000000000	-0.13791180126421	-0.15897475703073
1.0231000000000	-0.13416334415117	-0.16148750309799
1.0238000000000	-0.13070948715647	-0.16368504585441
1.0245000000000	-0.12718502000000	-0.16588603000000
1.0252000000000	-0.12356064332771	-0.16805060195820
1.0259000000000	-0.12005770910928	-0.17026688088054
1.0266000000000	-0.11623551714847	-0.17206747677379
1.0273000000000	-0.11254987904292	-0.17403225308317
1.0280000000000	-0.10889092000000	-0.17602296000000
1.0287000000000	-0.10519906613442	-0.17772297925991
1.0294000000000	-0.10133614373010	-0.17940971826774
1.0301000000000	-0.097703406875148	-0.18108377256107
1.0308000000000	-0.093893414745987	-0.18260334959823
1.0315000000000	-0.090076678000000	-0.18397769000000
1.0322000000000	-0.086434408816520	-0.18554363170027
1.0329000000000	-0.082579352036853	-0.18690750288770
1.0336000000000	-0.078879385381484	-0.18802869319339
1.0343000000000	-0.074997361972833	-0.18921087919381
1.0350000000000	-0.071283378000001	-0.19027762000000
1.0357000000000	-0.067509597944539	-0.19127100051528
1.0364000000000	-0.063574567939834	-0.19222019089359
1.0371000000000	-0.059764716629726	-0.19318156029053
1.0378000000000	-0.056011801609042	-0.19389922357459
1.0385000000000	-0.052179560000000	-0.19445387000000
1.0392000000000	-0.048463354135509	-0.19525065542217
1.0399000000000	-0.044601458494006	-0.19580721009595
1.0406000000000	-0.040756602967552	-0.19633556211011
1.0413000000000	-0.037101072259236	-0.19668799408881
1.0420000000000	-0.033147540000000	-0.19706120000000
1.0427000000000	-0.029487936732466	-0.19731769909712
1.0434000000000	-0.025616239048074	-0.19750987547089
1.0441000000000	-0.021848009902648	-0.19774139779777
1.0448000000000	-0.018178396544154	-0.19786408022546
1.0455000000000	-0.014371610000000	-0.19778486000000
1.0462000000000	-0.010747635029435	-0.19775794606466
1.0469000000000	-0.0070025742851575	-0.19776438865356
1.0476000000000	-0.0033847058192589	-0.19757337799136
1.0483000000000	0.00030455586984882	-0.19714712584181
1.0490000000000	0.0039245774999989	-0.19694030000000
1.0497000000000	0.0074626614339329	-0.19655815666089
1.0504000000000	0.011087445663807	-0.19609752158114
1.0511000000000	0.014688156368143	-0.19562953794957
1.0518000000000	0.018158576921968	-0.19502691200779
1.0525000000000	0.021696735000000	-0.19432467000000
1.0532000000000	0.025202956550392	-0.19369085335119
1.0539000000000	0.028656346200499	-0.19294546220138
1.0546000000000	0.032098422749502	-0.19215649146558
1.0553000000000	0.035627617060504	-0.19132289795333
1.0560000000000	0.039036922000000	-0.19037345000000
1.0567000000000	0.042382270824028	-0.18939869394720
1.0574000000000	0.045766664980803	-0.18837570043507
1.0581000000000	0.049043767956981	-0.18732226726490
1.0588000000000	0.052257669202257	-0.18620697559446
1.0595000000000	0.055471956999999	-0.18487303000000
1.0602000000000	0.058732319547887	-0.18368749540408
1.0609000000000	0.061956166158586	-0.18234823610593
1.0616000000000	0.065165673539620	-0.18100468717082
1.0623000000000	0.068210359906709	-0.17957924068761
1.0630000000000	0.071219309999999	-0.17808259000000
1.0637000000000	0.074528238876685	-0.17668925536829
1.0644000000000	0.077433303561680	-0.17507675380762
1.0651000000000	0.080457678623748	-0.17355345324979
1.0658000000000	0.083299603974761	-0.17185639071210
1.0665000000000	0.086208247000000	-0.17013252000000
1.0672000000000	0.089038176533552	-0.16837813656691
1.0679000000000	0.091824396574809	-0.16663575142650
1.0686000000000	0.094572615444557	-0.16488279319812
1.0693000000000	0.097250311972921	-0.16299847070241
1.0700000000000	0.10015290000000	-0.16112673000000
1.0707000000000	0.10275134029920	-0.15911080866912
1.0714000000000	0.10538638600844	-0.15715592572724
1.0721000000000	0.10798963065316	-0.15520727720896
1.0728000000000	0.11052875839970	-0.15311988775948
1.0735000000000	0.11306070000000	-0.15093555000000
1.0742000000000	0.11544314860532	-0.14889793583137
1.0749000000000	0.11777112496978	-0.14673283489616
1.0756000000000	0.12029004058444	-0.14455231985553
1.0763000000000	0.12256037460265	-0.14237432468416
1.0770000000000	0.12489826000000	-0.14011639000000
1.0777000000000	0.12709558986779	-0.13774998925861
1.0784000000000	0.12926788507389	-0.13553728852766
1.0791000000000	0.13148513631807	-0.13321755210091
1.0798000000000	0.13360500559643	-0.13082274065816
1.0805000000000	0.13557726000000	-0.12846449000000
1.0812000000000	0.13766548643377	-0.12595310770174
1.0819000000000	0.13973032042257	-0.12348297858356
1.0826000000000	0.14162444688671	-0.12101211871432
1.0833000000000	0.14346232613831	-0.11855083772216
1.0840000000000	0.14532728000000	-0.11600094000000
1.0847000000000	0.14712258237591	-0.11349943225482
1.0854000000000	0.14889434266104	-0.11092896280351
1.0861000000000	0.15065891334892	-0.10829682490983
1.0868000000000	0.15239742304811	-0.10573482687149
1.0875000000000	0.15392177000000	-0.10303961000000
1.0882000000000	0.15549342980354	-0.10043794673539
1.0889000000000	0.15706479865283	-0.097797927109927
1.0896000000000	0.15862626022653	-0.095141522727525
1.0903000000000	0.15993204949012	-0.092432273682413
1.0910000000000	0.16139105000000	-0.089649029000000
1.0917000000000	0.16269854180724	-0.087019408042020
1.0924000000000	0.16399277810259	-0.084275510364269
1.0931000000000	0.16526595921706	-0.081500729843313
1.0938000000000	0.16648122929281	-0.078818933964160
1.0945000000000	0.16768917000000	-0.076019078000000
1.0952000000000	0.16870031402103	-0.073202928591651
1.0959000000000	0.16980197206752	-0.070324802011431
1.0966000000000	0.17079658195214	-0.067591041175805
1.0973000000000	0.17180272803836	-0.064752105714616
1.0980000000000	0.17273928000000	-0.061919134000000
1.0987000000000	0.17358888684679	-0.059118408980522
1.0994000000000	0.17438845126252	-0.056231305610066
1.1001000000000	0.17527277208664	-0.053487306119549
1.1008000000000	0.17588060785017	-0.050586598365027
1.1015000000000	0.17668454000000	-0.047719840000001
1.1022000000000	0.17728777743770	-0.044840310695412
1.1029000000000	0.17788426011021	-0.041971296223433
1.1036000000000	0.17840028452054	-0.039119538765298
1.1043000000000	0.17892461710936	-0.036243100492280
1.1050000000000	0.17946734000000	-0.033395089000000
1.1057000000000	0.17987318785043	-0.030482891336769
1.1064000000000	0.18022891881079	-0.027644688877760
1.1071000000000	0.18061697875115	-0.024695516157486
1.1078000000000	0.18088885537859	-0.021864395243118
1.1085000000000	0.18114424000000	-0.019001905000000
1.1092000000000	0.18125325260878	-0.016082727918995
1.1099000000000	0.18150519054665	-0.013231453504267
1.1106000000000	0.18153076836979	-0.010342846758310
1.1113000000000	0.18157711064959	-0.0074690334483132
1.1120000000000	0.18163612000000	-0.0045707510000000
1.1127000000000	0.18158136024501	-0.0017332790688404
1.1134000000000	0.18152133187328	0.0010776739563449
1.1141000000000	0.18142866117673	0.0039700434764989
1.1148000000000	0.18126916398272	0.0067777680462961
1.1155000000000	0.18106520000000	0.0095840356999991
1.1162000000000	0.18087304515281	0.012360972376759
1.1169000000000	0.18059937081464	0.015261180679241
1.1176000000000	0.18027407471702	0.018012365498927
1.1183000000000	0.17995367638379	0.020863154271904
1.1190000000000	0.17951834000000	0.023549464000000
1.1197000000000	0.17909599434781	0.026367390912153
1.1204000000000	0.17866404176006	0.029086823858355
1.1211000000000	0.17812550494989	0.031858848954107
1.1218000000000	0.17755225459601	0.034525460628103
1.1225000000000	0.17687154000000	0.037288103000000
1.1232000000000	0.17633482529331	0.039892045901189
1.1239000000000	0.17564510952399	0.042576229636478
1.1246000000000	0.17481518082492	0.045292681152095
1.1253000000000	0.17418687561896	0.047960131224712
1.1260000000000	0.17336275000000	0.050578001999999
1.1267000000000	0.17245394288628	0.053227275533230
1.1274000000000	0.17161984622987	0.055782306116633
1.1281000000000	0.17069964488518	0.058396229277230
1.1288000000000	0.16965882455072	0.060982234656051
1.1295000000000	0.16876829000000	0.063460044999999
1.1302000000000	0.16769326801894	0.066101055872815
1.1309000000000	0.16668823224723	0.068507010880477
1.1316000000000	0.16563584127319	0.071021941698045
1.1323000000000	0.16450519486376	0.073485576031888
1.1330000000000	0.16328791000000	0.075913042000000
1.1337000000000	0.16212645019079	0.078329659581889
1.1344000000000	0.16092613276227	0.080794892667755
1.1351000000000	0.15966629508867	0.083082838480435
1.1358000000000	0.15833771865714	0.085424344032395
1.1365000000000	0.15710892000000	0.087824263000000
1.1372000000000	0.15567059970455	0.090173446197028
1.1379000000000	0.15435476118750	0.092405930228248
1.1386000000000	0.15292995323634	0.094668481164556
1.1393000000000	0.15161126741075	0.096857303799972
1.1400000000000	0.14999855000000	0.099207506000001
1.1407000000000	0.14860391898943	0.10131391109661
1.1414000000000	0.14713791640860	0.10344852020219
1.1421000000000	0.14547573314704	0.10558444144536
1.1428000000000	0.14390249005194	0.10775688682557
1.1435000000000	0.14231944000000	0.10985670000000
1.1442000000000	0.14063536554654	0.11192841280550
1.1449000000000	0.13895177287694	0.11393050610755
1.1456000000000	0.13730287531794	0.11594383342155
1.1463000000000	0.13559930075514	0.11788758310759
1.1470000000000	0.13384081000000	0.11985224000000
1.1477000000000	0.13206339722064	0.12174122724920
1.1484000000000	0.13029649210031	0.12360145464910
1.1491000000000	0.12838662456967	0.12550976273135
1.1498000000000	0.12665755165878	0.12730799775620
1.1505000000000	0.12474510000000	0.12909974000000
1.1512000000000	0.12284631023449	0.13089628494056
1.1519000000000	0.12101558820544	0.13268930643830
1.1526000000000	0.11903174884642	0.13434718173080
1.1533000000000	0.11709665090583	0.13603175275308
1.1540000000000	0.11508635000000	0.13767143000000
1.1547000000000	0.11302241258044	0.13925692223015
1.1554000000000	0.11104952698046	0.14089676489683
1.1561000000000	0.10902633682311	0.14238665427222
1.1568000000000	0.10688969776514	0.14398753400666
1.1575000000000	0.10481986000000	0.14547375000000
1.1582000000000	0.10274708764590	0.14690203846591
1.1589000000000	0.10060901588983	0.14832318445451
1.1596000000000	0.098509645222298	0.14975462028636
1.1603000000000	0.096283800800195	0.15114528106232
1.1610000000000	0.094113864000000	0.15253936000000
1.1617000000000	0.091973594024726	0.15371360169331
1.1624000000000	0.089753978013975	0.15503601643154
1.1631000000000	0.087501478559810	0.15624657782036
1.1638000000000	0.085233609448779	0.15745925574429
1.1645000000000	0.082938768000000	0.15861033000000
1.1652000000000	0.080744622666278	0.15978031739292
1.1659000000000	0.078524675907595	0.16086894272992
1.1666000000000	0.076141236578861	0.16199190465575
1.1673000000000	0.073849639843426	0.16308152747800
1.1680000000000	0.071541056000001	0.16396104000000
1.1687000000000	0.069239233986106	0.16507107146340
1.1694000000000	0.066887721384161	0.16595569862828
1.1701000000000	0.064527535106167	0.16697244366253
1.1708000000000	0.062173030301427	0.16773178303304
1.1715000000000	0.059830122000000	0.16865885000000
1.1722000000000	0.057388739646417	0.16944043551307
1.1729000000000	0.055012468847109	0.17024538810973
1.1736000000000	0.052603495222860	0.17097054364585
1.1743000000000	0.050207602631791	0.17177201226485
1.1750000000000	0.047818311000000	0.17246130000000
1.1757000000000	0.045459231760278	0.17306660813560
1.1764000000000	0.043002643494998	0.17371225002471
1.1771000000000	0.040595545932898	0.17435809469736
1.1778000000000	0.038182532263304	0.17490667195495
1.1785000000000	0.035735242000000	0.17547613000000
1.1792000000000	0.033388148669745	0.17592635597384
1.1799000000000	0.030922313316334	0.17640573648413
1.1806000000000	0.028464584597637	0.17678110596959
1.1813000000000	0.026041662919982	0.17727081004567
1.1820000000000	0.023607079000001	0.17759091000000
1.1827000000000	0.021212052409079	0.17792522903852
1.1834000000000	0.018714439178416	0.17827628457265
1.1841000000000	0.016219257003329	0.17850061730437
1.1848000000000	0.013860945776307	0.17870783157943
1.1855000000000	0.011334090000000	0.17888510000000
1.1862000000000	0.0089801694053183	0.17912235467449
1.1869000000000	0.0065360341204433	0.17926067078241
1.1876000000000	0.0040788162341978	0.17933156340327
1.1883000000000	0.0017003050708273	0.17944132618345
1.1890000000000	-0.00075507454999999	0.17943870000000
1.1897000000000	-0.0031721870901508	0.17943927516387
1.1904000000000	-0.0056183672250682	0.17942666636193
1.1911000000000	-0.0080219416235689	0.17941906398299
1.1918000000000	-0.010427926293671	0.17932103998625
1.1925000000000	-0.012852496999999	0.17921707000000
1.1932000000000	-0.015187547341940	0.17903454715394
1.1939000000000	-0.017622642445772	0.17880601208909
1.1946000000000	-0.019982711641572	0.17868775762867
1.1953000000000	-0.022428160052721	0.17834171119881
1.1960000000000	-0.024809333999999	0.17809226000000
1.1967000000000	-0.027188123318685	0.17765373529282
1.1974000000000	-0.029569019590666	0.17735212496290
1.1981000000000	-0.031922806793733	0.17694182955111
1.1988000000000	-0.034287475580254	0.17648943394184
1.1995000000000	-0.036601946000000	0.17610967000000
1.2002000000000	-0.038980049091944	0.17553331330537
1.2009000000000	-0.041305884683298	0.17506001006254
1.2016000000000	-0.043706864158564	0.17448032318849
1.2023000000000	-0.045988499239362	0.17388194585716
1.2030000000000	-0.048339602000000	0.17334779000000
1.2037000000000	-0.050652129682679	0.17259990385197
1.2044000000000	-0.052893981884467	0.17196891074374
1.2051000000000	-0.055240022329677	0.17119519797429
1.2058000000000	-0.057470281188690	0.17050591537081
1.2065000000000	-0.059794540999999	0.16980746000000
1.2072000000000	-0.062041642706089	0.16891831309725
1.2079000000000	-0.064263137080421	0.16815697472647
1.2086000000000	-0.066488552862321	0.16733721407161
1.2093000000000	-0.068666391972039	0.16638300674200
1.2100000000000	-0.070826635000000	0.16541648000000
1.2107000000000	-0.073049126033326	0.16455062005731
1.2114000000000	-0.075201317330385	0.16352971006994
1.2121000000000	-0.077356710034776	0.16257177659555
1.2128000000000	-0.079544259621643	0.16155119937205
1.2135000000000	-0.081626594000000	0.16046748000000
1.2142000000000	-0.083848356208373	0.15937609764805
1.2149000000000	-0.085936202214728	0.15820494195584
1.2156000000000	-0.088016210353334	0.15714070307520
1.2163000000000	-0.090066747778935	0.15601436707093
1.2170000000000	-0.092140049000000	0.15480413000000
1.2177000000000	-0.094221878700296	0.15354900592989
1.2184000000000	-0.096184848078993	0.15231726791448
1.2191000000000	-0.098192317962018	0.15109251220382
1.2198000000000	-0.10012822495323	0.14979613789244
1.2205000000000	-0.10203280000000	0.14846516000000
1.2212000000000	-0.10405258063922	0.14717510048745
1.2219000000000	-0.10594581101498	0.14584448097512
1.2226000000000	-0.10782755144128	0.14442260280313
1.2233000000000	-0.10968968727473	0.14307246237747
1.2240000000000	-0.11158137000000	0.14148435000000
1.2247000000000	-0.11339902820853	0.14019680646179
1.2254000000000	-0.11521262142828	0.13869588035926
1.2261000000000	-0.11700594496655	0.13722122040796
1.2268000000000	-0.11877259662598	0.13574701762882
1.2275000000000	-0.12051379000000	0.13416937000000
1.2282000000000	-0.12225527091021	0.13268133913293
1.2289000000000	-0.12396107480824	0.13107263772893
1.2296000000000	-0.12566128724723	0.12951045548278
1.2303000000000	-0.12728051830051	0.12786174591588
1.2310000000000	-0.12894496000000	0.12626135000000
1.2317000000000	-0.13055757451191	0.12459541538697
1.2324000000000	-0.13212381454854	0.12296057679706
1.2331000000000	-0.13371482865797	0.12121101514470
1.2338000000000	-0.13528421586002	0.11944206362400
1.2345000000000	-0.13674921000000	0.11777383000000
1.2352000000000	-0.13828738261637	0.11608729031860
1.2359000000000	-0.13970694219736	0.11430464697314
1.2366000000000	-0.14121220158636	0.11244862570481
1.2373000000000	-0.14256871581915	0.11076502543485
1.2380000000000	-0.14413477000000	0.10892153000000
1.2387000000000	-0.14544263216895	0.10713096240551
1.2394000000000	-0.14677752678506	0.10525877107640
1.2401000000000	-0.14814495443007	0.10345367718990
1.2408000000000	-0.14946368963534	0.10155044348480
1.2415000000000	-0.15061761000000	0.099608533000000
1.2422000000000	-0.15193942103592	0.097675401343711
1.2429000000000	-0.15315866046360	0.095764692975412
1.2436000000000	-0.15428172563766	0.093910038894885
1.2443000000000	-0.15552554984516	0.091898732128945
1.2450000000000	-0.15662394000000	0.089988284000000
1.2457000000000	-0.15781543509641	0.087972605908942
1.2464000000000	-0.15890359984578	0.086004739750352
1.2471000000000	-0.16000226885306	0.083992589876014
1.2478000000000	-0.16109453881650	0.081968222556616
1.2485000000000	-0.16212219000000	0.079934135000001
1.2492000000000	-0.16307414423671	0.077871706181101
1.2499000000000	-0.16410164953539	0.075811434343700
1.2506000000000	-0.16505069328720	0.073791119847520
1.2513000000000	-0.16596365726813	0.071724630008400
1.2520000000000	-0.16684295000000	0.069564804000000
1.2527000000000	-0.16773906651595	0.067534917777262
1.2534000000000	-0.16861427435989	0.065393133099865
1.2541000000000	-0.16933152487827	0.063245429666441
1.2548000000000	-0.17020915417767	0.061187191519670
1.2555000000000	-0.17096698000000	0.058942456000000
1.2562000000000	-0.17171838525089	0.056866975291877
1.2569000000000	-0.17244654292155	0.054633925491568
1.2576000000000	-0.17315211452314	0.052558881014890
1.2583000000000	-0.17385771644404	0.050418571260025
1.2590000000000	-0.17444898000000	0.048180338000001
1.2597000000000	-0.17503919106976	0.046099351739455
