#Parameters = {erbase1=3.5; erbase11=0.03; a=52.07; b=12.07; c=38.862; depth=3; width=3; wx=165.1; wth=12; wy=82.55; wz=558.8; wx2=250; wy2=220; er1=8; er11=1}
#"Frequency / GHz"	"S5,5 [Real/Imaginary Part] [Re]"	"S5,5 [Real/Imaginary Part] [Im]"
#-------------------------------------------------------------------------------------
1.0000000000000	-0.22778477000000	-0.054120749000000
1.0007000000000	-0.22576296590362	-0.058957218665813
1.0014000000000	-0.22357782828831	-0.063762529582512
1.0021000000000	-0.22146087854838	-0.068439504789284
1.0028000000000	-0.21897933457466	-0.073407724983248
1.0035000000000	-0.21682829000000	-0.077872775000000
1.0042000000000	-0.21426735841275	-0.082431129589643
1.0049000000000	-0.21158096359652	-0.086911348391398
1.0056000000000	-0.20902912317685	-0.091350344211230
1.0063000000000	-0.20630311943845	-0.095498332835598
1.0070000000000	-0.20365097000000	-0.099815062999999
1.0077000000000	-0.20087953744015	-0.10392055742395
1.0084000000000	-0.19777140031098	-0.10798776365872
1.0091000000000	-0.19495204453483	-0.11220139623309
1.0098000000000	-0.19191816599413	-0.11597058532155
1.0105000000000	-0.18884894000000	-0.11962094000000
1.0112000000000	-0.18565833792638	-0.12328978912818
1.0119000000000	-0.18235336972789	-0.12713542458099
1.0126000000000	-0.17908276495098	-0.13044947627052
1.0133000000000	-0.17580376986073	-0.13396447352922
1.0140000000000	-0.17251723000000	-0.13715555000000
1.0147000000000	-0.16905105334899	-0.14051029126333
1.0154000000000	-0.16550248094817	-0.14375278075861
1.0161000000000	-0.16212772747515	-0.14653719059578
1.0168000000000	-0.15859074828847	-0.14972106679519
1.0175000000000	-0.15500700000000	-0.15250258000000
1.0182000000000	-0.15116168292583	-0.15547388407183
1.0189000000000	-0.14761130961999	-0.15807976428190
1.0196000000000	-0.14386706019818	-0.16080579853065
1.0203000000000	-0.14014194797375	-0.16344775706053
1.0210000000000	-0.13634060000000	-0.16592017000000
1.0217000000000	-0.13264065227874	-0.16817370410380
1.0224000000000	-0.12885697731720	-0.17043011886339
1.0231000000000	-0.12480671872966	-0.17271908638980
1.0238000000000	-0.12106553786904	-0.17462363976483
1.0245000000000	-0.11737227000000	-0.17673473000000
1.0252000000000	-0.11337179706605	-0.17859329985800
1.0259000000000	-0.10965930045530	-0.18054307738290
1.0266000000000	-0.10553048305036	-0.18231218872767
1.0273000000000	-0.10151028609264	-0.18388810422351
1.0280000000000	-0.097691163000000	-0.18557395000000
1.0287000000000	-0.093720948947276	-0.18705443466323
1.0294000000000	-0.089724884189748	-0.18853600030221
1.0301000000000	-0.085851539260463	-0.18994784058656
1.0308000000000	-0.081736745300094	-0.19106925737512
1.0315000000000	-0.077689350000000	-0.19196446000000
1.0322000000000	-0.073753000437022	-0.19337609265580
1.0329000000000	-0.069680353811758	-0.19440150596981
1.0336000000000	-0.065872342701782	-0.19529961545067
1.0343000000000	-0.061784839757279	-0.19620921616981
1.0350000000000	-0.057889700000001	-0.19695708000000
1.0357000000000	-0.053892499143149	-0.19768423352465
1.0364000000000	-0.049870119667715	-0.19833286536291
1.0371000000000	-0.045845092615498	-0.19894987798970
1.0378000000000	-0.042011285939943	-0.19930987235082
1.0385000000000	-0.038057335000000	-0.19958630000000
1.0392000000000	-0.034126733024181	-0.20005906391621
1.0399000000000	-0.030079404713642	-0.20039121878456
1.0406000000000	-0.026244402658655	-0.20050650694215
1.0413000000000	-0.022350594237412	-0.20058772179858
1.0420000000000	-0.018361792000000	-0.20056467000000
1.0427000000000	-0.014544601290553	-0.20052946579033
1.0434000000000	-0.010657659388753	-0.20040681438472
1.0441000000000	-0.0067885677326089	-0.20038154308595
1.0448000000000	-0.0030480297911802	-0.20004820433387
1.0455000000000	0.00088450348000000	-0.19971822000000
1.0462000000000	0.0045316653111608	-0.19927874789705
1.0469000000000	0.0082528030676199	-0.19899680434072
1.0476000000000	0.012047159223578	-0.19844712073188
1.0483000000000	0.015683770451261	-0.19769189989337
1.0490000000000	0.019329398999999	-0.19702987000000
1.0497000000000	0.022999698391498	-0.19636758336121
1.0504000000000	0.026597975425760	-0.19548725197100
1.0511000000000	0.030304972106342	-0.19462410149307
1.0518000000000	0.033709502987624	-0.19385111848764
1.0525000000000	0.037302505000000	-0.19281648000000
1.0532000000000	0.040703274115970	-0.19183919456436
1.0539000000000	0.044234214522046	-0.19074692028693
1.0546000000000	0.047548665918258	-0.18964599569967
1.0553000000000	0.051183836196626	-0.18846912201832
1.0560000000000	0.054467712000000	-0.18718803000000
1.0567000000000	0.057765522526170	-0.18586617734979
1.0574000000000	0.061097475038522	-0.18440170133365
1.0581000000000	0.064372322223882	-0.18300686960784
1.0588000000000	0.067493205261816	-0.18162410954869
1.0595000000000	0.070557794999999	-0.17997254000000
1.0602000000000	0.073829514350650	-0.17849701788581
1.0609000000000	0.076865455958430	-0.17676168875316
1.0616000000000	0.080138156068008	-0.17512734033134
1.0623000000000	0.083101322460553	-0.17338656527723
1.0630000000000	0.085912718999999	-0.17147152000000
1.0637000000000	0.089133416657783	-0.16978141118728
1.0644000000000	0.091871382050402	-0.16789504024053
1.0651000000000	0.094813668536061	-0.16600029912763
1.0658000000000	0.097565772202591	-0.16399218209020
1.0665000000000	0.10038389000000	-0.16202153000000
1.0672000000000	0.10300118456975	-0.15997069394708
1.0679000000000	0.10562985060590	-0.15801612314955
1.0686000000000	0.10832046895463	-0.15587331031385
1.0693000000000	0.11074306402936	-0.15369827414340
1.0700000000000	0.11344369000000	-0.15144315000000
1.0707000000000	0.11596206667096	-0.14917463341210
1.0714000000000	0.11839322030039	-0.14691906706341
1.0721000000000	0.12081412905166	-0.14471219593057
1.0728000000000	0.12306404475413	-0.14239848866014
1.0735000000000	0.12541336000000	-0.13988943000000
1.0742000000000	0.12762190297324	-0.13755306872737
1.0749000000000	0.12984802323225	-0.13512134558771
1.0756000000000	0.13205563962009	-0.13273330914472
1.0763000000000	0.13414077657315	-0.13024410563566
1.0770000000000	0.13634093000000	-0.12779757000000
1.0777000000000	0.13829984038693	-0.12518213081715
1.0784000000000	0.14021340041946	-0.12270080724148
1.0791000000000	0.14224736121013	-0.12019353925674
1.0798000000000	0.14409078926797	-0.11755374767927
1.0805000000000	0.14589728000000	-0.11491803000000
1.0812000000000	0.14767403006931	-0.11218512126623
1.0819000000000	0.14949089024903	-0.10950089906785
1.0826000000000	0.15112514789862	-0.10684210807072
1.0833000000000	0.15275555346652	-0.10417465089065
1.0840000000000	0.15434408000000	-0.10141727000000
1.0847000000000	0.15585939619229	-0.098725348622085
1.0854000000000	0.15749169850058	-0.095986986371762
1.0861000000000	0.15892763070381	-0.093120886896526
1.0868000000000	0.16028686755142	-0.090352709642916
1.0875000000000	0.16171682000000	-0.087435149000001
1.0882000000000	0.16288243031450	-0.084714114298168
1.0889000000000	0.16422832146565	-0.081934788367814
1.0896000000000	0.16541900314376	-0.078991963644730
1.0903000000000	0.16646438728930	-0.076257620507501
1.0910000000000	0.16767249000000	-0.073367722000000
1.0917000000000	0.16858348049076	-0.070574170765301
1.0924000000000	0.16966663420436	-0.067647367796649
1.0931000000000	0.17065256273177	-0.064702131917734
1.0938000000000	0.17153201033967	-0.061837348204234
1.0945000000000	0.17241466000000	-0.058962967000000
1.0952000000000	0.17306676834810	-0.056049735732314
1.0959000000000	0.17389757594554	-0.053087211739981
1.0966000000000	0.17463089064620	-0.050239953059289
1.0973000000000	0.17538620700794	-0.047271895908375
1.0980000000000	0.17583360000000	-0.044375598000000
1.0987000000000	0.17648046454172	-0.041485187008182
1.0994000000000	0.17687653270696	-0.038566429703368
1.1001000000000	0.17748929553563	-0.035578301758315
1.1008000000000	0.17785373201326	-0.032724280337050
1.1015000000000	0.17825134000000	-0.029748159000001
1.1022000000000	0.17851676416814	-0.026795256477427
1.1029000000000	0.17879997357699	-0.023905031016156
1.1036000000000	0.17909744135353	-0.021001157809641
1.1043000000000	0.17925051794296	-0.018018819549692
1.1050000000000	0.17938875000000	-0.015106646000000
1.1057000000000	0.17952823127649	-0.012213248142667
1.1064000000000	0.17954831118491	-0.0092675872896944
1.1071000000000	0.17958640175327	-0.0063520456551958
1.1078000000000	0.17950048787320	-0.0034132606386818
1.1085000000000	0.17943111000000	-0.00060468109000000
1.1092000000000	0.17925099662256	0.0023420216617933
1.1099000000000	0.17918136694068	0.0051454476820709
1.1106000000000	0.17889353187180	0.0080022250879539
1.1113000000000	0.17851565335764	0.010841142153655
1.1120000000000	0.17833608000000	0.013742959000000
1.1127000000000	0.17788217706195	0.016524865134957
1.1134000000000	0.17746456901578	0.019305727800009
1.1141000000000	0.17707578209981	0.022177578912920
1.1148000000000	0.17660151833956	0.024995390847527
1.1155000000000	0.17607747000000	0.027754630999999
1.1162000000000	0.17548837587337	0.030482154254158
1.1169000000000	0.17496682889103	0.033297185789049
1.1176000000000	0.17422677085682	0.036039105492362
1.1183000000000	0.17366221285345	0.038792271420549
1.1190000000000	0.17285773000000	0.041446403000000
1.1197000000000	0.17216742514553	0.044145879631564
1.1204000000000	0.17142676767308	0.046792056604253
1.1211000000000	0.17053101459260	0.049428253946923
1.1218000000000	0.16967608285141	0.052025672999660
1.1225000000000	0.16873576000000	0.054698225000000
1.1232000000000	0.16783566585608	0.057127453698450
1.1239000000000	0.16678908874988	0.059715587363118
1.1246000000000	0.16566115556718	0.062314777390975
1.1253000000000	0.16473730597407	0.064882703362745
1.1260000000000	0.16358118000000	0.067383907999999
1.1267000000000	0.16234652162418	0.069828017025785
1.1274000000000	0.16118691738844	0.072308991373756
1.1281000000000	0.15997249705318	0.074707172440867
1.1288000000000	0.15868103316919	0.077178834052179
1.1295000000000	0.15748259000000	0.079470782999999
1.1302000000000	0.15617469208032	0.081968392840192
1.1309000000000	0.15487056796412	0.084199866320711
1.1316000000000	0.15350718472592	0.086579244822126
1.1323000000000	0.15211351685818	0.088884313090914
1.1330000000000	0.15059106000000	0.091120340000000
1.1337000000000	0.14914405568118	0.093361837691522
1.1344000000000	0.14768576194925	0.095635571476660
1.1351000000000	0.14612215026773	0.097747052136762
1.1358000000000	0.14463620104093	0.099863939107898
1.1365000000000	0.14305803000000	0.10205305000000
1.1372000000000	0.14145297270211	0.10414287572942
1.1379000000000	0.13981281966726	0.10622808039423
1.1386000000000	0.13819345751269	0.10832678281612
1.1393000000000	0.13658827425697	0.11028452603380
1.1400000000000	0.13470086000000	0.11231594000000
1.1407000000000	0.13310753004793	0.11425920123110
1.1414000000000	0.13135425792221	0.11622405061642
1.1421000000000	0.12950279056381	0.11810913900465
1.1428000000000	0.12772557335809	0.12000849014425
1.1435000000000	0.12575136000000	0.12187479000000
1.1442000000000	0.12399120246709	0.12362473492986
1.1449000000000	0.12206941579970	0.12543949556024
1.1456000000000	0.12024239762034	0.12723472036166
1.1463000000000	0.11828388582579	0.12890458458496
1.1470000000000	0.11630024000000	0.13062155000000
1.1477000000000	0.11437138788378	0.13223410925802
1.1484000000000	0.11243420367288	0.13381135981693
1.1491000000000	0.11033011207133	0.13545756364817
1.1498000000000	0.10838693054283	0.13699045119733
1.1505000000000	0.10631987000000	0.13852605000000
1.1512000000000	0.10422029238075	0.14002299571474
1.1519000000000	0.10227558679098	0.14153128551676
1.1526000000000	0.10006465011669	0.14289065941311
1.1533000000000	0.097964548090185	0.14430142092491
1.1540000000000	0.095793471000001	0.14559747000000
1.1547000000000	0.093575236780967	0.14691186863358
1.1554000000000	0.091465895551831	0.14829065584312
1.1561000000000	0.089239017457612	0.14945981693485
1.1568000000000	0.086947963932544	0.15077585597373
1.1575000000000	0.084774591000000	0.15187317000000
1.1582000000000	0.082489806913287	0.15306159508065
1.1589000000000	0.080356719844616	0.15418500422319
1.1596000000000	0.078031861036488	0.15532644059354
1.1603000000000	0.075717625309511	0.15638061068039
1.1610000000000	0.073433265000000	0.15737593000000
1.1617000000000	0.071175561111599	0.15824539073385
1.1624000000000	0.068840576419320	0.15924235678868
1.1631000000000	0.066540975270898	0.16021099983756
1.1638000000000	0.064152402624301	0.16108378173357
1.1645000000000	0.061750300000000	0.16189589000000
1.1652000000000	0.059447430903789	0.16275209072085
1.1659000000000	0.057211635237856	0.16352281439461
1.1666000000000	0.054676938479836	0.16427060340562
1.1673000000000	0.052289908574882	0.16503582616454
1.1680000000000	0.049977913000001	0.16559188000000
1.1687000000000	0.047584281988297	0.16638238050969
1.1694000000000	0.045230033447310	0.16689670526812
1.1701000000000	0.042729659480303	0.16755279988462
1.1708000000000	0.040322455665586	0.16802184390561
1.1715000000000	0.037995305000000	0.16862606000000
1.1722000000000	0.035518367860859	0.16907547527625
1.1729000000000	0.033099556445493	0.16950344394421
1.1736000000000	0.030696886331303	0.16988639984467
1.1743000000000	0.028305666751922	0.17034977473192
1.1750000000000	0.025866183000000	0.17071848000000
1.1757000000000	0.023431439867969	0.17098396118080
1.1764000000000	0.020999852826439	0.17129710986236
1.1771000000000	0.018644899967260	0.17165201809553
1.1778000000000	0.016222081391220	0.17183333466049
1.1785000000000	0.013769965000000	0.17205563000000
1.1792000000000	0.011424170340134	0.17214995200043
1.1799000000000	0.0089677141261139	0.17225728753231
1.1806000000000	0.0065706802788927	0.17236669500272
1.1813000000000	0.0042135741924953	0.17247265482882
1.1820000000000	0.0018375361000008	0.17252737000000
1.1827000000000	-0.00052783877182385	0.17243637569905
1.1834000000000	-0.0029863807907843	0.17246886152779
1.1841000000000	-0.0053855928061425	0.17234014252982
1.1848000000000	-0.0076692086573140	0.17221223112644
1.1855000000000	-0.010076636000000	0.17205043000000
1.1862000000000	-0.012429503056154	0.17196345655056
1.1869000000000	-0.014764278081065	0.17174928112067
1.1876000000000	-0.017154497439370	0.17157356081065
1.1883000000000	-0.019416667665902	0.17124939989350
1.1890000000000	-0.021742763000000	0.17090042000000
1.1897000000000	-0.024019721459932	0.17059665597816
1.1904000000000	-0.026400136519433	0.17033077500760
1.1911000000000	-0.028703400514345	0.16997369390325
1.1918000000000	-0.031015503035743	0.16954073337714
1.1925000000000	-0.033261145999999	0.16913745000000
1.1932000000000	-0.035524403492612	0.16859901390206
1.1939000000000	-0.037822374935726	0.16809478913730
1.1946000000000	-0.040007666023445	0.16756591506875
1.1953000000000	-0.042368375200960	0.16694256351966
1.1960000000000	-0.044520485999999	0.16640852000000
1.1967000000000	-0.046852463540992	0.16563123660657
1.1974000000000	-0.048978668007682	0.16498083466509
1.1981000000000	-0.051179754670390	0.16422410028142
1.1988000000000	-0.053447435908056	0.16348800613836
1.1995000000000	-0.055549890000000	0.16280991000000
1.2002000000000	-0.057743532650525	0.16192863400175
1.2009000000000	-0.059894682691918	0.16115284478305
1.2016000000000	-0.062074121637281	0.16026935074583
1.2023000000000	-0.064165824992630	0.15937182718891
1.2030000000000	-0.066319861000000	0.15854414000000
1.2037000000000	-0.068482865772384	0.15756763352786
1.2044000000000	-0.070488826975419	0.15660586987093
1.2051000000000	-0.072632017906995	0.15551288042407
1.2058000000000	-0.074631427673146	0.15454226973866
1.2065000000000	-0.076744302999999	0.15357551000000
1.2072000000000	-0.078809295773831	0.15234706555802
1.2079000000000	-0.080788021383115	0.15137928955641
1.2086000000000	-0.082778840148587	0.15022031963624
1.2093000000000	-0.084750356890781	0.14901704899134
1.2100000000000	-0.086655252000000	0.14787960000000
1.2107000000000	-0.088646396565828	0.14664970300850
1.2114000000000	-0.090587552805699	0.14540252289547
1.2121000000000	-0.092490748547555	0.14413666729209
1.2128000000000	-0.094467409531842	0.14286434846589
1.2135000000000	-0.096298628000000	0.14160579000000
1.2142000000000	-0.098185243459711	0.14023591014256
1.2149000000000	-0.099994534380224	0.13878830761532
1.2156000000000	-0.10191152760020	0.13746470997295
1.2163000000000	-0.10364292045933	0.13608064484816
1.2170000000000	-0.10541956000000	0.13466720000000
1.2177000000000	-0.10728519017312	0.13326372483161
1.2184000000000	-0.10891139496731	0.13177867218440
1.2191000000000	-0.11068216982975	0.13030668970540
1.2198000000000	-0.11232222664040	0.12880217732499
1.2205000000000	-0.11390606000000	0.12727241000000
1.2212000000000	-0.11566086736169	0.12571474527949
1.2219000000000	-0.11729489815943	0.12423174230656
1.2226000000000	-0.11884823740667	0.12258884919066
1.2233000000000	-0.12041987584895	0.12111168957913
1.2240000000000	-0.12204698000000	0.11927424000000
1.2247000000000	-0.12354169256072	0.11780004371944
1.2254000000000	-0.12509082489069	0.11613420995437
1.2261000000000	-0.12647117464494	0.11451173016522
1.2268000000000	-0.12796054044391	0.11285025302742
1.2275000000000	-0.12934197000000	0.11109022000000
1.2282000000000	-0.13081194146998	0.10943081868421
1.2289000000000	-0.13218553064163	0.10772481542352
1.2296000000000	-0.13352194582344	0.10593276813355
1.2303000000000	-0.13482733747076	0.10419543230778
1.2310000000000	-0.13603389000000	0.10244324000000
1.2317000000000	-0.13750951958770	0.10064136032978
1.2324000000000	-0.13868385173461	0.098945708610967
1.2331000000000	-0.13986312742588	0.096968058258876
1.2338000000000	-0.14113196647698	0.095138062818194
1.2345000000000	-0.14224848000000	0.093373962000001
1.2352000000000	-0.14348871670167	0.091514131120862
1.2359000000000	-0.14457348010241	0.089681617865790
1.2366000000000	-0.14569755240682	0.087769518559081
1.2373000000000	-0.14669350060936	0.085957328129088
1.2380000000000	-0.14788707000000	0.083998263000000
1.2387000000000	-0.14889198951188	0.082040735176221
1.2394000000000	-0.14983840470070	0.080123740075583
1.2401000000000	-0.15078474579422	0.078261615369301
1.2408000000000	-0.15174680694906	0.076205250280168
1.2415000000000	-0.15260938000000	0.074246056000000
1.2422000000000	-0.15350611087114	0.072257268671632
1.2429000000000	-0.15433430705609	0.070333575773574
1.2436000000000	-0.15520080250801	0.068376708206770
1.2443000000000	-0.15597515996025	0.066342371178821
1.2450000000000	-0.15678214000000	0.064348035000000
1.2457000000000	-0.15756365367987	0.062279002686493
1.2464000000000	-0.15829123939107	0.060365496935305
1.2471000000000	-0.15897799379849	0.058271903047739
1.2478000000000	-0.15975194302844	0.056218202922497
1.2485000000000	-0.16036771000000	0.054168910000001
1.2492000000000	-0.16099287583010	0.052111624623441
1.2499000000000	-0.16167147036430	0.050038967233599
1.2506000000000	-0.16222222050304	0.047994017405310
1.2513000000000	-0.16272357013588	0.045913012794024
1.2520000000000	-0.16327132000000	0.043821938000000
1.2527000000000	-0.16377311103101	0.041778257562350
1.2534000000000	-0.16428089280571	0.039641759324153
1.2541000000000	-0.16467796625257	0.037524632477399
1.2548000000000	-0.16509868759663	0.035494086580369
1.2555000000000	-0.16545710000000	0.033358876000000
1.2562000000000	-0.16593214167906	0.031214878302241
1.2569000000000	-0.16615988761853	0.029065133658741
1.2576000000000	-0.16658678399567	0.026945896917755
1.2583000000000	-0.16686888028268	0.024907691629573
1.2590000000000	-0.16712599000000	0.022847414000001
1.2597000000000	-0.16731707177046	0.020733667267327
1.2604000000000	-0.16756303027095	0.018583342827350
