#Parameters = {erbase1=3.5; erbase11=0.03; a=52.07; b=12.07; c=38.862; depth=3; width=3; wx=165.1; wth=12; wy=82.55; wz=558.8; wx2=250; wy2=220; er1=8; er11=0.3}
#"Frequency / GHz"	"S5,5 [Real/Imaginary Part] [Re]"	"S5,5 [Real/Imaginary Part] [Im]"
#-------------------------------------------------------------------------------------
1.0000000000000	-0.22915182000000	-0.035246901000000
1.0007000000000	-0.22760620600758	-0.040142476291228
1.0014000000000	-0.22599496984453	-0.044975703959384
1.0021000000000	-0.22436387196229	-0.049802367306833
1.0028000000000	-0.22237335815643	-0.054616023401615
1.0035000000000	-0.22062139000000	-0.059233300000000
1.0042000000000	-0.21861085534111	-0.063994283483834
1.0049000000000	-0.21646825132178	-0.068400263216195
1.0056000000000	-0.21434756064840	-0.072955077160905
1.0063000000000	-0.21212756111157	-0.077284371302855
1.0070000000000	-0.20980746000000	-0.081726997999998
1.0077000000000	-0.20752899350257	-0.085966711589471
1.0084000000000	-0.20492907893607	-0.090052768553034
1.0091000000000	-0.20258761067725	-0.094489325060389
1.0098000000000	-0.20000629539483	-0.098290413833586
1.0105000000000	-0.19745007000000	-0.10218912000000
1.0112000000000	-0.19463903558193	-0.10611655304955
1.0119000000000	-0.19185117882076	-0.11004732537338
1.0126000000000	-0.18894800899323	-0.11355219824587
1.0133000000000	-0.18603750331526	-0.11733403970178
1.0140000000000	-0.18313928000000	-0.12075140000000
1.0147000000000	-0.18020886868574	-0.12433211422687
1.0154000000000	-0.17705282987204	-0.12774987762410
1.0161000000000	-0.17401701649329	-0.13088562841119
1.0168000000000	-0.17084104629264	-0.13431132069417
1.0175000000000	-0.16762272000000	-0.13743050000000
1.0182000000000	-0.16426720869845	-0.14060232263474
1.0189000000000	-0.16102312904830	-0.14349796314952
1.0196000000000	-0.15772545527283	-0.14652728021529
1.0203000000000	-0.15420455097649	-0.14938588938606
1.0210000000000	-0.15081435000000	-0.15210824000000
1.0217000000000	-0.14751961154203	-0.15475427818449
1.0224000000000	-0.14408416119526	-0.15732186207538
1.0231000000000	-0.14037296879141	-0.15996273769267
1.0238000000000	-0.13689604785064	-0.16225637902319
1.0245000000000	-0.13343661000000	-0.16460499000000
1.0252000000000	-0.12981124722846	-0.16688330560379
1.0259000000000	-0.12632642358045	-0.16909023645155
1.0266000000000	-0.12260570135559	-0.17118703893297
1.0273000000000	-0.11886823118650	-0.17316548118266
1.0280000000000	-0.11527593000000	-0.17531286000000
1.0287000000000	-0.11150723090935	-0.17708441670215
1.0294000000000	-0.10769583802302	-0.17888571325803
1.0301000000000	-0.10404413700640	-0.18063823031905
1.0308000000000	-0.10031533185867	-0.18230318103650
1.0315000000000	-0.096462868000000	-0.18383120000000
1.0322000000000	-0.092769494936094	-0.18551195914503
1.0329000000000	-0.088903923327695	-0.18694663910804
1.0336000000000	-0.085210562367381	-0.18815468735765
1.0343000000000	-0.081354078763956	-0.18943491894792
1.0350000000000	-0.077550948000001	-0.19060853000000
1.0357000000000	-0.073775909841790	-0.19172571542275
1.0364000000000	-0.069892248327877	-0.19281733951844
1.0371000000000	-0.066115420985494	-0.19382599318472
1.0378000000000	-0.062300741102785	-0.19469453013975
1.0385000000000	-0.058580603000000	-0.19530571000000
1.0392000000000	-0.054668063237578	-0.19627460960451
1.0399000000000	-0.050844010484652	-0.19704047237049
1.0406000000000	-0.046996043181015	-0.19759324792707
1.0413000000000	-0.043296974636655	-0.19808250838657
1.0420000000000	-0.039241236000000	-0.19854903000000
1.0427000000000	-0.035608755931348	-0.19891033645975
1.0434000000000	-0.031759918868676	-0.19924682727904
1.0441000000000	-0.027933571371779	-0.19958571329877
1.0448000000000	-0.024264908891139	-0.19975067671893
1.0455000000000	-0.020403447000000	-0.19977757000000
1.0462000000000	-0.016706368648822	-0.19993019536615
1.0469000000000	-0.012963655842854	-0.19999693021021
1.0476000000000	-0.0092540844185621	-0.19996759390971
1.0483000000000	-0.0055734975211868	-0.19956291702254
1.0490000000000	-0.0018858806000011	-0.19945444000000
1.0497000000000	0.0016972780460496	-0.19915888650533
1.0504000000000	0.0052946251721069	-0.19884402992945
1.0511000000000	0.0090289971332396	-0.19845004340184
1.0518000000000	0.012540392771457	-0.19797089901423
1.0525000000000	0.016129894000000	-0.19736458000000
1.0532000000000	0.019596877190111	-0.19683678842190
1.0539000000000	0.023173374045681	-0.19619915961255
1.0546000000000	0.026666312979513	-0.19545908894849
1.0553000000000	0.030212251111735	-0.19475825456408
1.0560000000000	0.033690795000000	-0.19392392000000
1.0567000000000	0.037078181120060	-0.19296478205632
1.0574000000000	0.040528268121027	-0.19200211482734
1.0581000000000	0.043933184978494	-0.19103572106523
1.0588000000000	0.047095557187266	-0.19007237549859
1.0595000000000	0.050416472999999	-0.18876700000000
1.0602000000000	0.053708333354238	-0.18772007396098
1.0609000000000	0.057060868518262	-0.18647002980972
1.0616000000000	0.060329209111904	-0.18512862593034
1.0623000000000	0.063490211553350	-0.18387406068565
1.0630000000000	0.066490575999999	-0.18242326000000
1.0637000000000	0.069901591030659	-0.18109220551419
1.0644000000000	0.072909155169095	-0.17956453222274
1.0651000000000	0.075977665748283	-0.17805417110910
1.0658000000000	0.078853302416173	-0.17646108053611
1.0665000000000	0.081890672000000	-0.17480692000000
1.0672000000000	0.084791439985395	-0.17316099253440
1.0679000000000	0.087664549730391	-0.17151723081960
1.0686000000000	0.090502460006805	-0.16977743090966
1.0693000000000	0.093274280722247	-0.16792500903695
1.0700000000000	0.096227333000000	-0.16606429000000
1.0707000000000	0.098934488941916	-0.16417289252538
1.0714000000000	0.10159819329785	-0.16234053100261
1.0721000000000	0.10428389115395	-0.16043903166804
1.0728000000000	0.10693233576464	-0.15841384572842
1.0735000000000	0.10946348000000	-0.15625516000000
1.0742000000000	0.11199442075080	-0.15430259682480
1.0749000000000	0.11443265633368	-0.15222128974546
1.0756000000000	0.11698016299988	-0.15008741805403
1.0763000000000	0.11937472976772	-0.14794106386165
1.0770000000000	0.12176054000000	-0.14575168000000
1.0777000000000	0.12407386718312	-0.14343140267589
1.0784000000000	0.12630390614792	-0.14124244842325
1.0791000000000	0.12858798312376	-0.13903012839347
1.0798000000000	0.13082498930398	-0.13665347612288
1.0805000000000	0.13293791000000	-0.13435070000000
1.0812000000000	0.13504790346480	-0.13183789251500
1.0819000000000	0.13722806426917	-0.12938110285984
1.0826000000000	0.13921617450383	-0.12702129415870
1.0833000000000	0.14112311824631	-0.12455707067866
1.0840000000000	0.14310467000000	-0.12201693000000
1.0847000000000	0.14503992549832	-0.11963859012588
1.0854000000000	0.14689279125979	-0.11703269353438
1.0861000000000	0.14874979100824	-0.11443296414200
1.0868000000000	0.15051662158706	-0.11194859068643
1.0875000000000	0.15221235000000	-0.10926896000000
1.0882000000000	0.15387990437750	-0.10669247391185
1.0889000000000	0.15553831299350	-0.10408538789317
1.0896000000000	0.15715095858599	-0.10141604908337
1.0903000000000	0.15854685780455	-0.098777588405234
1.0910000000000	0.16008523000000	-0.096042685000000
1.0917000000000	0.16153935440667	-0.093400538949603
1.0924000000000	0.16295781731751	-0.090743131929577
1.0931000000000	0.16440159472194	-0.087965801581346
1.0938000000000	0.16562434340742	-0.085226075793828
1.0945000000000	0.16688529000000	-0.082447790000000
1.0952000000000	0.16803594459430	-0.079683863364445
1.0959000000000	0.16926117016655	-0.076761225984664
1.0966000000000	0.17031751124397	-0.074065418938266
1.0973000000000	0.17148080321275	-0.071233548080016
1.0980000000000	0.17247212000000	-0.068476386000000
1.0987000000000	0.17344307439983	-0.065650609957295
1.0994000000000	0.17432482755001	-0.062781337094174
1.1001000000000	0.17524894102745	-0.059966811537271
1.1008000000000	0.17601988113144	-0.057114989706783
1.1015000000000	0.17692992000000	-0.054249361000001
1.1022000000000	0.17761798365162	-0.051319380993362
1.1029000000000	0.17832052095889	-0.048444237511070
1.1036000000000	0.17893716984888	-0.045634350394882
1.1043000000000	0.17958315990935	-0.042739364791343
1.1050000000000	0.18018301000000	-0.039909557000000
1.1057000000000	0.18072035245247	-0.037002371572374
1.1064000000000	0.18116004429684	-0.034106213403510
1.1071000000000	0.18164862463700	-0.031133855408246
1.1078000000000	0.18197491555337	-0.028270030098287
1.1085000000000	0.18234746000000	-0.025340976000000
1.1092000000000	0.18254089738162	-0.022475407502153
1.1099000000000	0.18285190394484	-0.019601287183363
1.1106000000000	0.18299315193239	-0.016666405738793
1.1113000000000	0.18316275092651	-0.013812598742064
1.1120000000000	0.18327670000000	-0.010948648000000
1.1127000000000	0.18335178268577	-0.0080212860619794
1.1134000000000	0.18329638140052	-0.0052122897165019
1.1141000000000	0.18332995956615	-0.0023076759621117
1.1148000000000	0.18328317376867	0.00054241750589317
1.1155000000000	0.18322809000000	0.0033786086999991
1.1162000000000	0.18307398008406	0.0062191197107615
1.1169000000000	0.18285488039226	0.0091402800462959
1.1176000000000	0.18262567521770	0.011945070646368
1.1183000000000	0.18243948912134	0.014764965756279
1.1190000000000	0.18208750000000	0.017537050000000
1.1197000000000	0.18177766011905	0.020364687063381
1.1204000000000	0.18140230084112	0.023117373222538
1.1211000000000	0.18098835573291	0.025903571498767
1.1218000000000	0.18046767831283	0.028647322563159
1.1225000000000	0.17989166000000	0.031401705000000
1.1232000000000	0.17940445205472	0.034072005792067
1.1239000000000	0.17882771213579	0.036825134658724
1.1246000000000	0.17809771768890	0.039609171797847
1.1253000000000	0.17750438937708	0.042295636712070
1.1260000000000	0.17677733000000	0.045005056999999
1.1267000000000	0.17594757332024	0.047646155072122
1.1274000000000	0.17521654353996	0.050326507566433
1.1281000000000	0.17428373172119	0.052902916637322
1.1288000000000	0.17344697992796	0.055592168952114
1.1295000000000	0.17257293000000	0.058095890999999
1.1302000000000	0.17165746466635	0.060807967430077
1.1309000000000	0.17067576474771	0.063272984500051
1.1316000000000	0.16965597278698	0.065850299735197
1.1323000000000	0.16867063431611	0.068366477346764
1.1330000000000	0.16749215000000	0.070823528000000
1.1337000000000	0.16644838835735	0.073364046920803
1.1344000000000	0.16531012137047	0.075905329722505
1.1351000000000	0.16408760057358	0.078227861915445
1.1358000000000	0.16291991134798	0.080608847919896
1.1365000000000	0.16169748000000	0.083040752000000
1.1372000000000	0.16039438578972	0.085496063701821
1.1379000000000	0.15910811106529	0.087816458122070
1.1386000000000	0.15773781044622	0.090120252897165
1.1393000000000	0.15647610074254	0.092434199656052
1.1400000000000	0.15493834000000	0.094789684000001
1.1407000000000	0.15365811292156	0.097008039656425
1.1414000000000	0.15222127307714	0.099235319793589
1.1421000000000	0.15060050835750	0.10146874033207
1.1428000000000	0.14912721622034	0.10368542833023
1.1435000000000	0.14757288000000	0.10589198000000
1.1442000000000	0.14601211024746	0.10797812920180
1.1449000000000	0.14435970803913	0.11004728098433
1.1456000000000	0.14280244898086	0.11217711711286
1.1463000000000	0.14115719251954	0.11419356678027
1.1470000000000	0.13946015000000	0.11624761000000
1.1477000000000	0.13772954955660	0.11820330663884
1.1484000000000	0.13605034693766	0.12012048313874
1.1491000000000	0.13421161184055	0.12212879878694
1.1498000000000	0.13250270447549	0.12401376514861
1.1505000000000	0.13064435000000	0.12589446000000
1.1512000000000	0.12879142638183	0.12775289887187
1.1519000000000	0.12703941877614	0.12963492192712
1.1526000000000	0.12504125412189	0.13137121715452
1.1533000000000	0.12321543014407	0.13317052645376
1.1540000000000	0.12117866000000	0.13486989000000
1.1547000000000	0.11923709907274	0.13656902602891
1.1554000000000	0.11730574078092	0.13830995380881
1.1561000000000	0.11527847288371	0.13984521161794
1.1568000000000	0.11323356190869	0.14153014821438
1.1575000000000	0.11115436000000	0.14311188000000
1.1582000000000	0.10908976539755	0.14462176186820
1.1589000000000	0.10704719523668	0.14614625922123
1.1596000000000	0.10495270696855	0.14763803163674
1.1603000000000	0.10277698090093	0.14916960453944
1.1610000000000	0.10063693000000	0.15054648000000
1.1617000000000	0.098529536944135	0.15187940333529
1.1624000000000	0.096388163954650	0.15329608321621
1.1631000000000	0.094124771684186	0.15462554368862
1.1638000000000	0.091870839597938	0.15587740938602
1.1645000000000	0.089623757000000	0.15718287000000
1.1652000000000	0.087447125954554	0.15841821443915
1.1659000000000	0.085252543544131	0.15961532420221
1.1666000000000	0.082902885773474	0.16075563455752
1.1673000000000	0.080562981743217	0.16196913242126
1.1680000000000	0.078320161000001	0.16295388000000
1.1687000000000	0.076023898802007	0.16413622289303
1.1694000000000	0.073740215300151	0.16516633288299
1.1701000000000	0.071355531054576	0.16617831246813
1.1708000000000	0.068980082816501	0.16708586412283
1.1715000000000	0.066736899000000	0.16811258000000
1.1722000000000	0.064294244474132	0.16895014978517
1.1729000000000	0.061834951266758	0.16986741237069
1.1736000000000	0.059483853517988	0.17067779806039
1.1743000000000	0.057141788701617	0.17160096609333
1.1750000000000	0.054759823000000	0.17238148000000
1.1757000000000	0.052344218662626	0.17304805829112
1.1764000000000	0.049913582029592	0.17379582887923
1.1771000000000	0.047566803270241	0.17455686244223
1.1778000000000	0.045084958619749	0.17518724824206
1.1785000000000	0.042666689000000	0.17585859000000
1.1792000000000	0.040353440090125	0.17636192609893
1.1799000000000	0.037867914201773	0.17694356627299
1.1806000000000	0.035375423546843	0.17744239710982
1.1813000000000	0.032924750956038	0.17805635892098
1.1820000000000	0.030515080000001	0.17849585000000
1.1827000000000	0.028148915920316	0.17887619746433
1.1834000000000	0.025626310185687	0.17936986382365
1.1841000000000	0.023175984213750	0.17967766742748
1.1848000000000	0.020786324303037	0.17998732422208
1.1855000000000	0.018290598000000	0.18024230000000
1.1862000000000	0.015858269241060	0.18058507135484
1.1869000000000	0.013413497039255	0.18081554726535
1.1876000000000	0.010979310369042	0.18099163842477
1.1883000000000	0.0085818078079725	0.18119091615379
1.1890000000000	0.0061017973000000	0.18131028000000
1.1897000000000	0.0036808833463879	0.18138303138735
1.1904000000000	0.0012626641435193	0.18149713098929
1.1911000000000	-0.0011919178332749	0.18156406455203
1.1918000000000	-0.0036074417873472	0.18151519346284
1.1925000000000	-0.0060203223999992	0.18151177000000
1.1932000000000	-0.0083968477578817	0.18142372154815
1.1939000000000	-0.010842990986863	0.18132850864890
1.1946000000000	-0.013211906186858	0.18128451759666
1.1953000000000	-0.015708087794592	0.18106464581731
1.1960000000000	-0.018108356999999	0.18087363000000
1.1967000000000	-0.020480554542956	0.18058052374782
1.1974000000000	-0.022871520886069	0.18035621513766
1.1981000000000	-0.025278444988758	0.18001695793457
1.1988000000000	-0.027688464786867	0.17965132490197
1.1995000000000	-0.029983392000000	0.17934372000000
1.2002000000000	-0.032425112967526	0.17885933241527
1.2009000000000	-0.034782054627598	0.17847920032119
1.2016000000000	-0.037203516935525	0.17796818045480
1.2023000000000	-0.039530845008267	0.17747832683501
1.2030000000000	-0.041924305000000	0.17705747000000
1.2037000000000	-0.044238913419298	0.17637612326060
1.2044000000000	-0.046544329709227	0.17580809969614
1.2051000000000	-0.048944942322133	0.17516675533162
1.2058000000000	-0.051198275334714	0.17448863956441
1.2065000000000	-0.053506183999999	0.17394237000000
1.2072000000000	-0.055865278208237	0.17307609823737
1.2079000000000	-0.058108805527952	0.17241062229503
1.2086000000000	-0.060407406772709	0.17163898317685
1.2093000000000	-0.062656047936333	0.17079767425798
1.2100000000000	-0.064835824000000	0.16995227000000
1.2107000000000	-0.067136600797599	0.16912181773198
1.2114000000000	-0.069321890849164	0.16819353249939
1.2121000000000	-0.071597754398852	0.16729933086240
1.2128000000000	-0.073781434561233	0.16634103280607
1.2135000000000	-0.075967334000000	0.16531143000000
1.2142000000000	-0.078179029718107	0.16432328537832
1.2149000000000	-0.080313595160774	0.16321831535569
1.2156000000000	-0.082455971949718	0.16219661044735
1.2163000000000	-0.084598114523976	0.16115146182463
1.2170000000000	-0.086735047000000	0.16002072000000
1.2177000000000	-0.088852807758900	0.15883058769762
1.2184000000000	-0.090850897837285	0.15773641319010
1.2191000000000	-0.092970500392038	0.15650297847994
1.2198000000000	-0.094978771006929	0.15530525751046
1.2205000000000	-0.096934668999999	0.15409583000000
1.2212000000000	-0.099041075510907	0.15283180494496
1.2219000000000	-0.10102582082893	0.15157451140178
1.2226000000000	-0.10296201353821	0.15020250324350
1.2233000000000	-0.10489258592104	0.14890820707563
1.2240000000000	-0.10686075000000	0.14740074000000
1.2247000000000	-0.10875438977049	0.14619477097262
1.2254000000000	-0.11062764563312	0.14478143980178
1.2261000000000	-0.11245671973345	0.14333607226861
1.2268000000000	-0.11431509962409	0.14192072469097
1.2275000000000	-0.11610515000000	0.14036100000000
1.2282000000000	-0.11793586842961	0.13902424487706
1.2289000000000	-0.11970961006905	0.13747241882477
1.2296000000000	-0.12150633038404	0.13597705120733
1.2303000000000	-0.12318410974689	0.13432826677426
1.2310000000000	-0.12491495000000	0.13279702000000
1.2317000000000	-0.12667455877555	0.13123784325098
1.2324000000000	-0.12824660430224	0.12963872997176
1.2331000000000	-0.12991320026338	0.12793688284054
1.2338000000000	-0.13157441879587	0.12628729715870
1.2345000000000	-0.13311517000000	0.12458865000000
1.2352000000000	-0.13477815631705	0.12299265959016
1.2359000000000	-0.13624902572226	0.12126418340034
1.2366000000000	-0.13785582894248	0.11950880042044
1.2373000000000	-0.13930938313787	0.11781814077979
1.2380000000000	-0.14088491000000	0.11606565000000
1.2387000000000	-0.14230439700373	0.11430189410037
1.2394000000000	-0.14374930833823	0.11249585040185
1.2401000000000	-0.14515128076383	0.11074993111708
1.2408000000000	-0.14658295363688	0.10883844953885
1.2415000000000	-0.14783928000000	0.10700325000000
1.2422000000000	-0.14920937329711	0.10507438869059
1.2429000000000	-0.15055677928663	0.10324539477001
1.2436000000000	-0.15177537339412	0.10138923988041
1.2443000000000	-0.15307053672362	0.099440606478956
1.2450000000000	-0.15427299000000	0.097489938000000
1.2457000000000	-0.15554116300562	0.095572258508825
1.2464000000000	-0.15669892156312	0.093657410628373
1.2471000000000	-0.15791837151749	0.091687371637024
1.2478000000000	-0.15910712582923	0.089705233666610
1.2485000000000	-0.16021612000000	0.087686978000001
1.2492000000000	-0.16125184053292	0.085679734458664
1.2499000000000	-0.16240625059772	0.083607162038806
1.2506000000000	-0.16341301889763	0.081580015419314
1.2513000000000	-0.16439537253999	0.079575652884739
1.2520000000000	-0.16541778000000	0.077471040000000
1.2527000000000	-0.16637496121007	0.075478408845100
1.2534000000000	-0.16738149117964	0.073326372384040
1.2541000000000	-0.16819836615010	0.071209213133640
1.2548000000000	-0.16911641994968	0.069166708366874
1.2555000000000	-0.17000312000000	0.066952378000000
1.2562000000000	-0.17083822973029	0.064869248553666
1.2569000000000	-0.17158703701531	0.062685667757058
1.2576000000000	-0.17244264012797	0.060599376216401
1.2583000000000	-0.17320755390782	0.058471041510291
1.2590000000000	-0.17387769000000	0.056321058000001
1.2597000000000	-0.17458815636182	0.054193064173532
1.2604000000000	-0.17530668133815	0.051951073136273
